[2021-12-24 16:11:41 星期五]

[2021-12-24 16:11:47 星期五]

[2021-12-24 16:11:50 星期五]
保存至路径：../Modbus-RTU-Master/record.txt
文件名称：record.txt
文件大小：0
创建日期：2021-12-24 13:17:23
最后保存日期：2021-12-24 16:04:44


[2021-12-24 16:12:27 星期五]
文件路径设置成功！
C:/Users/19943/Desktop/Modbus/Modbus-RTU/Modbus-RTU-Master/Modbus-RTU-Master/record.txt

[2021-12-24 16:12:38 星期五]
保存至路径：C:/Users/19943/Desktop/Modbus/Modbus-RTU/Modbus-RTU-Master/Modbus-RTU-Master/record.txt
文件名称：record.txt
文件大小：269
创建日期：2021-12-24 13:17:23
最后保存日期：2021-12-24 16:11:50


[2021-12-24 16:15:32 星期五]

[2021-12-24 16:15:32 星期五]

[2021-12-24 16:15:32 星期五]

[2021-12-24 16:15:32 星期五]

[2021-12-24 16:15:33 星期五]

[2021-12-24 16:15:38 星期五]
使用默认路径！
../Modbus-RTU-Master/record.txt

[2021-12-24 16:15:42 星期五]
保存至路径：../Modbus-RTU-Master/record.txt
文件名称：record.txt
文件大小：679
创建日期：2021-12-24 13:17:23
最后保存日期：2021-12-24 16:12:38


[2021-12-24 16:15:46 星期五]
文件路径设置成功！
C:/Users/19943/Desktop/Modbus/Modbus-RTU/Modbus-RTU-Master/Modbus-RTU-Master/record.txt

[2021-12-24 16:15:54 星期五]
保存至路径：C:/Users/19943/Desktop/Modbus/Modbus-RTU/Modbus-RTU-Master/Modbus-RTU-Master/record.txt
文件名称：record.txt
文件大小：1136
创建日期：2021-12-24 13:17:23
最后保存日期：2021-12-24 16:15:42


[2021-12-24 16:16:06 星期五]
保存至路径：C:/Users/19943/Desktop/Modbus/Modbus-RTU/Modbus-RTU-Master/Modbus-RTU-Master/record.txt
文件名称：record.txt
文件大小：1547
创建日期：2021-12-24 13:17:23
最后保存日期：2021-12-24 16:15:54


[2021-12-24 16:16:18 星期五]
保存至路径：C:/Users/19943/Desktop/Modbus/Modbus-RTU/Modbus-RTU-Master/Modbus-RTU-Master/record.txt
文件名称：record.txt
文件大小：1809
创建日期：2021-12-24 13:17:23
最后保存日期：2021-12-24 16:16:06


[2021-12-24 16:16:25 星期五]

[2021-12-24 16:16:26 星期五]

[2021-12-24 16:16:26 星期五]

[2021-12-24 16:16:26 星期五]

[2021-12-24 16:16:30 星期五]
保存至路径：C:/Users/19943/Desktop/Modbus/Modbus-RTU/Modbus-RTU-Master/Modbus-RTU-Master/record.txt
文件名称：record.txt
文件大小：2071
创建日期：2021-12-24 13:17:23
最后保存日期：2021-12-24 16:16:18


[2021-12-24 16:41:59 星期五]
保存至路径：../Modbus-RTU-Master/record.txt
文件名称：record.txt
文件大小：2465
创建日期：2021-12-24 13:17:23
最后保存日期：2021-12-24 16:16:30


[2021-12-24 17:10:53 星期五]
保存至路径：../Modbus-RTU-Master/record.txt
文件名称：record.txt
文件大小：2671
创建日期：2021-12-24 13:17:23
最后保存日期：2021-12-24 16:41:59


[2021-12-24 17:11:05 星期五]
保存至路径：../Modbus-RTU-Master/record.txt
文件名称：record.txt
文件大小：2877
创建日期：2021-12-24 13:17:23
最后保存日期：2021-12-24 17:10:53


[2021-12-24 17:11:17 星期五]
保存至路径：../Modbus-RTU-Master/record.txt
文件名称：record.txt
文件大小：3083
创建日期：2021-12-24 13:17:23
最后保存日期：2021-12-24 17:11:05


[2021-12-24 17:11:29 星期五]
保存至路径：../Modbus-RTU-Master/record.txt
文件名称：record.txt
文件大小：3289
创建日期：2021-12-24 13:17:23
最后保存日期：2021-12-24 17:11:17


[2021-12-24 17:11:39 星期五]

[2021-12-24 17:11:39 星期五]

[2021-12-24 17:11:40 星期五]

[2021-12-24 17:11:40 星期五]

[2021-12-24 17:11:41 星期五]

[2021-12-24 17:11:41 星期五]
保存至路径：../Modbus-RTU-Master/record.txt
文件名称：record.txt
文件大小：3495
创建日期：2021-12-24 13:17:23
最后保存日期：2021-12-24 17:11:29


[2021-12-24 17:11:47 星期五]
文件路径设置成功！
C:/Users/19943/Desktop/Modbus/Modbus-RTU/Modbus-RTU-Master/Modbus-RTU-Master/record.txt

[2021-12-24 17:11:53 星期五]
保存至路径：C:/Users/19943/Desktop/Modbus/Modbus-RTU/Modbus-RTU-Master/Modbus-RTU-Master/record.txt
文件名称：record.txt
文件大小：3866
创建日期：2021-12-24 13:17:23
最后保存日期：2021-12-24 17:11:41


[2021-12-24 17:12:05 星期五]
保存至路径：C:/Users/19943/Desktop/Modbus/Modbus-RTU/Modbus-RTU-Master/Modbus-RTU-Master/record.txt
文件名称：record.txt
文件大小：4277
创建日期：2021-12-24 13:17:23
最后保存日期：2021-12-24 17:11:53


[2021-12-24 17:12:06 星期五]
保存至路径：C:/Users/19943/Desktop/Modbus/Modbus-RTU/Modbus-RTU-Master/Modbus-RTU-Master/record.txt
文件名称：record.txt
文件大小：4539
创建日期：2021-12-24 13:17:23
最后保存日期：2021-12-24 17:12:05


[2021-12-27 08:19:18 星期一]
保存至路径：../Modbus-RTU-Master/record.txt
文件名称：record.txt
文件大小：4801
创建日期：2021-12-24 13:17:23
最后保存日期：2021-12-24 17:12:06


[2021-12-27 08:19:46 星期一]
保存至路径：../Modbus-RTU-Master/record.txt
文件名称：record.txt
文件大小：5007
创建日期：2021-12-24 13:17:23
最后保存日期：2021-12-27 08:19:18


[2021-12-27 08:19:58 星期一]
保存至路径：../Modbus-RTU-Master/record.txt
文件名称：record.txt
文件大小：5213
创建日期：2021-12-24 13:17:23
最后保存日期：2021-12-27 08:19:47


[2021-12-27 08:20:08 星期一]
保存至路径：../Modbus-RTU-Master/record.txt
文件名称：record.txt
文件大小：5419
创建日期：2021-12-24 13:17:23
最后保存日期：2021-12-27 08:19:59


[2021-12-27 09:13:32 星期一]
保存至路径：../Modbus-RTU-Master/record.txt
文件名称：record.txt
文件大小：5625
创建日期：2021-12-24 13:17:23
最后保存日期：2021-12-27 08:20:08


[2021-12-27 09:19:15 星期一]
保存至路径：../Modbus-RTU-Master/record.txt
文件名称：record.txt
文件大小：5831
创建日期：2021-12-24 13:17:23
最后保存日期：2021-12-27 09:13:32


[2021-12-27 09:19:27 星期一]
保存至路径：../Modbus-RTU-Master/record.txt
文件名称：record.txt
文件大小：6037
创建日期：2021-12-24 13:17:23
最后保存日期：2021-12-27 09:19:15


[2021-12-27 09:19:39 星期一]
保存至路径：../Modbus-RTU-Master/record.txt
文件名称：record.txt
文件大小：6243
创建日期：2021-12-24 13:17:23
最后保存日期：2021-12-27 09:19:27


[2021-12-27 09:19:51 星期一]
保存至路径：../Modbus-RTU-Master/record.txt
文件名称：record.txt
文件大小：6449
创建日期：2021-12-24 13:17:23
最后保存日期：2021-12-27 09:19:39


00 01 04 57 00 6f 

[2021-12-27 09:20:03 星期一]
保存至路径：../Modbus-RTU-Master/record.txt
文件名称：record.txt
文件大小：6655
创建日期：2021-12-24 13:17:23
最后保存日期：2021-12-27 09:19:51


[2021-12-27 09:20:15 星期一]
保存至路径：../Modbus-RTU-Master/record.txt
文件名称：record.txt
文件大小：6881
创建日期：2021-12-24 13:17:23
最后保存日期：2021-12-27 09:20:03


[2021-12-27 09:20:27 星期一]
保存至路径：../Modbus-RTU-Master/record.txt
文件名称：record.txt
文件大小：7087
创建日期：2021-12-24 13:17:23
最后保存日期：2021-12-27 09:20:15


[2021-12-27 09:20:28 星期一]
保存至路径：../Modbus-RTU-Master/record.txt
文件名称：record.txt
文件大小：7293
创建日期：2021-12-24 13:17:23
最后保存日期：2021-12-27 09:20:27


[2021-12-27 09:23:45 星期一]
保存至路径：../Modbus-RTU-Master/record.txt
文件名称：record.txt
文件大小：7499
创建日期：2021-12-24 13:17:23
最后保存日期：2021-12-27 09:20:28


[2021-12-27 09:23:57 星期一]
保存至路径：../Modbus-RTU-Master/record.txt
文件名称：record.txt
文件大小：7705
创建日期：2021-12-24 13:17:23
最后保存日期：2021-12-27 09:23:45


[2021-12-27 09:23:58 星期一]
保存至路径：../Modbus-RTU-Master/record.txt
文件名称：record.txt
文件大小：7911
创建日期：2021-12-24 13:17:23
最后保存日期：2021-12-27 09:23:57


[2021-12-27 09:25:23 星期一]
保存至路径：../Modbus-RTU-Master/record.txt
文件名称：record.txt
文件大小：8117
创建日期：2021-12-24 13:17:23
最后保存日期：2021-12-27 09:23:58


[2021-12-27 09:25:35 星期一]
保存至路径：../Modbus-RTU-Master/record.txt
文件名称：record.txt
文件大小：8323
创建日期：2021-12-24 13:17:23
最后保存日期：2021-12-27 09:25:23


00 01 00 02 00 03 

[2021-12-27 09:25:47 星期一]
保存至路径：../Modbus-RTU-Master/record.txt
文件名称：record.txt
文件大小：8529
创建日期：2021-12-24 13:17:23
最后保存日期：2021-12-27 09:25:35


[2021-12-27 09:25:59 星期一]
保存至路径：../Modbus-RTU-Master/record.txt
文件名称：record.txt
文件大小：8755
创建日期：2021-12-24 13:17:23
最后保存日期：2021-12-27 09:25:47


[2021-12-27 09:26:04 星期一]
保存至路径：../Modbus-RTU-Master/record.txt
文件名称：record.txt
文件大小：8961
创建日期：2021-12-24 13:17:23
最后保存日期：2021-12-27 09:25:59


[2021-12-27 09:36:29 星期一]
保存至路径：../Modbus-RTU-Master/record.txt
文件名称：record.txt
文件大小：9167
创建日期：2021-12-24 13:17:23
最后保存日期：2021-12-27 09:26:04


[2021-12-27 09:36:41 星期一]
保存至路径：../Modbus-RTU-Master/record.txt
文件名称：record.txt
文件大小：9373
创建日期：2021-12-24 13:17:23
最后保存日期：2021-12-27 09:36:29


[2021-12-27 09:36:53 星期一]
保存至路径：../Modbus-RTU-Master/record.txt
文件名称：record.txt
文件大小：9579
创建日期：2021-12-24 13:17:23
最后保存日期：2021-12-27 09:36:41


[2021-12-27 09:37:05 星期一]
保存至路径：../Modbus-RTU-Master/record.txt
文件名称：record.txt
文件大小：9785
创建日期：2021-12-24 13:17:23
最后保存日期：2021-12-27 09:36:53


[2021-12-27 09:37:17 星期一]
保存至路径：../Modbus-RTU-Master/record.txt
文件名称：record.txt
文件大小：9991
创建日期：2021-12-24 13:17:23
最后保存日期：2021-12-27 09:37:05


[2021-12-27 09:37:29 星期一]
保存至路径：../Modbus-RTU-Master/record.txt
文件名称：record.txt
文件大小：10197
创建日期：2021-12-24 13:17:23
最后保存日期：2021-12-27 09:37:17


[2021-12-27 09:37:41 星期一]
保存至路径：../Modbus-RTU-Master/record.txt
文件名称：record.txt
文件大小：10404
创建日期：2021-12-24 13:17:23
最后保存日期：2021-12-27 09:37:29


[2021-12-27 09:37:53 星期一]
保存至路径：../Modbus-RTU-Master/record.txt
文件名称：record.txt
文件大小：10611
创建日期：2021-12-24 13:17:23
最后保存日期：2021-12-27 09:37:41


[2021-12-27 09:38:05 星期一]
保存至路径：../Modbus-RTU-Master/record.txt
文件名称：record.txt
文件大小：10818
创建日期：2021-12-24 13:17:23
最后保存日期：2021-12-27 09:37:53


[2021-12-27 09:38:17 星期一]
保存至路径：../Modbus-RTU-Master/record.txt
文件名称：record.txt
文件大小：11025
创建日期：2021-12-24 13:17:23
最后保存日期：2021-12-27 09:38:05


[2021-12-27 09:38:29 星期一]
保存至路径：../Modbus-RTU-Master/record.txt
文件名称：record.txt
文件大小：11232
创建日期：2021-12-24 13:17:23
最后保存日期：2021-12-27 09:38:17


[2021-12-27 09:38:41 星期一]
保存至路径：../Modbus-RTU-Master/record.txt
文件名称：record.txt
文件大小：11439
创建日期：2021-12-24 13:17:23
最后保存日期：2021-12-27 09:38:29


[2021-12-27 09:39:08 星期一]
保存至路径：../Modbus-RTU-Master/record.txt
文件名称：record.txt
文件大小：11646
创建日期：2021-12-24 13:17:23
最后保存日期：2021-12-27 09:38:41


[2021-12-27 09:39:20 星期一]
保存至路径：../Modbus-RTU-Master/record.txt
文件名称：record.txt
文件大小：11853
创建日期：2021-12-24 13:17:23
最后保存日期：2021-12-27 09:39:08


[2021-12-27 09:39:32 星期一]
保存至路径：../Modbus-RTU-Master/record.txt
文件名称：record.txt
文件大小：12060
创建日期：2021-12-24 13:17:23
最后保存日期：2021-12-27 09:39:20


[2021-12-27 09:39:44 星期一]
保存至路径：../Modbus-RTU-Master/record.txt
文件名称：record.txt
文件大小：12267
创建日期：2021-12-24 13:17:23
最后保存日期：2021-12-27 09:39:32


[2021-12-27 09:39:56 星期一]
保存至路径：../Modbus-RTU-Master/record.txt
文件名称：record.txt
文件大小：12474
创建日期：2021-12-24 13:17:23
最后保存日期：2021-12-27 09:39:44


[2021-12-27 09:40:08 星期一]
保存至路径：../Modbus-RTU-Master/record.txt
文件名称：record.txt
文件大小：12681
创建日期：2021-12-24 13:17:23
最后保存日期：2021-12-27 09:39:56


[2021-12-27 09:40:20 星期一]
保存至路径：../Modbus-RTU-Master/record.txt
文件名称：record.txt
文件大小：12888
创建日期：2021-12-24 13:17:23
最后保存日期：2021-12-27 09:40:08


[2021-12-27 09:40:32 星期一]
保存至路径：../Modbus-RTU-Master/record.txt
文件名称：record.txt
文件大小：13095
创建日期：2021-12-24 13:17:23
最后保存日期：2021-12-27 09:40:20


[2021-12-27 09:40:44 星期一]
保存至路径：../Modbus-RTU-Master/record.txt
文件名称：record.txt
文件大小：13302
创建日期：2021-12-24 13:17:23
最后保存日期：2021-12-27 09:40:32


[2021-12-27 09:40:56 星期一]
保存至路径：../Modbus-RTU-Master/record.txt
文件名称：record.txt
文件大小：13509
创建日期：2021-12-24 13:17:23
最后保存日期：2021-12-27 09:40:44


[2021-12-27 09:41:08 星期一]
保存至路径：../Modbus-RTU-Master/record.txt
文件名称：record.txt
文件大小：13716
创建日期：2021-12-24 13:17:23
最后保存日期：2021-12-27 09:40:56


[2021-12-27 09:41:20 星期一]
保存至路径：../Modbus-RTU-Master/record.txt
文件名称：record.txt
文件大小：13923
创建日期：2021-12-24 13:17:23
最后保存日期：2021-12-27 09:41:08


[2021-12-27 09:41:32 星期一]
保存至路径：../Modbus-RTU-Master/record.txt
文件名称：record.txt
文件大小：14130
创建日期：2021-12-24 13:17:23
最后保存日期：2021-12-27 09:41:20


[2021-12-27 09:41:44 星期一]
保存至路径：../Modbus-RTU-Master/record.txt
文件名称：record.txt
文件大小：14337
创建日期：2021-12-24 13:17:23
最后保存日期：2021-12-27 09:41:32


[2021-12-27 09:41:56 星期一]
保存至路径：../Modbus-RTU-Master/record.txt
文件名称：record.txt
文件大小：14544
创建日期：2021-12-24 13:17:23
最后保存日期：2021-12-27 09:41:44


[2021-12-27 09:42:08 星期一]
保存至路径：../Modbus-RTU-Master/record.txt
文件名称：record.txt
文件大小：14751
创建日期：2021-12-24 13:17:23
最后保存日期：2021-12-27 09:41:56


[2021-12-27 09:42:20 星期一]
保存至路径：../Modbus-RTU-Master/record.txt
文件名称：record.txt
文件大小：14958
创建日期：2021-12-24 13:17:23
最后保存日期：2021-12-27 09:42:08


[2021-12-27 09:42:32 星期一]
保存至路径：../Modbus-RTU-Master/record.txt
文件名称：record.txt
文件大小：15165
创建日期：2021-12-24 13:17:23
最后保存日期：2021-12-27 09:42:20


[2021-12-27 09:42:44 星期一]
保存至路径：../Modbus-RTU-Master/record.txt
文件名称：record.txt
文件大小：15372
创建日期：2021-12-24 13:17:23
最后保存日期：2021-12-27 09:42:32


[2021-12-27 09:42:56 星期一]
保存至路径：../Modbus-RTU-Master/record.txt
文件名称：record.txt
文件大小：15579
创建日期：2021-12-24 13:17:23
最后保存日期：2021-12-27 09:42:44


[2021-12-27 09:43:08 星期一]
保存至路径：../Modbus-RTU-Master/record.txt
文件名称：record.txt
文件大小：15786
创建日期：2021-12-24 13:17:23
最后保存日期：2021-12-27 09:42:56


[2021-12-27 09:43:20 星期一]
保存至路径：../Modbus-RTU-Master/record.txt
文件名称：record.txt
文件大小：15993
创建日期：2021-12-24 13:17:23
最后保存日期：2021-12-27 09:43:08


[2021-12-27 09:43:28 星期一]
保存至路径：../Modbus-RTU-Master/record.txt
文件名称：record.txt
文件大小：16200
创建日期：2021-12-24 13:17:23
最后保存日期：2021-12-27 09:43:20


[2021-12-27 09:58:08 星期一]
保存至路径：../Modbus-RTU-Master/record.txt
文件名称：record.txt
文件大小：16407
创建日期：2021-12-24 13:17:23
最后保存日期：2021-12-27 09:43:28


[2021-12-27 10:06:04 星期一]
保存至路径：../Modbus-RTU-Master/record.txt
文件名称：record.txt
文件大小：16614
创建日期：2021-12-24 13:17:23
最后保存日期：2021-12-27 09:58:08


[2021-12-27 10:06:16 星期一]
保存至路径：../Modbus-RTU-Master/record.txt
文件名称：record.txt
文件大小：16821
创建日期：2021-12-24 13:17:23
最后保存日期：2021-12-27 10:06:04


[2021-12-27 10:06:28 星期一]
保存至路径：../Modbus-RTU-Master/record.txt
文件名称：record.txt
文件大小：17028
创建日期：2021-12-24 13:17:23
最后保存日期：2021-12-27 10:06:16


[2021-12-27 10:06:40 星期一]
保存至路径：../Modbus-RTU-Master/record.txt
文件名称：record.txt
文件大小：17235
创建日期：2021-12-24 13:17:23
最后保存日期：2021-12-27 10:06:28


[2021-12-27 10:07:21]
保存至路径：../Modbus-RTU-Master/record.txt
文件名称：record.txt
文件大小：17442
创建日期：2021-12-24 13:17:23
最后保存日期：2021-12-27 10:06:40


[2021-12-27 10:07:33]
保存至路径：../Modbus-RTU-Master/record.txt
文件名称：record.txt
文件大小：17639
创建日期：2021-12-24 13:17:23
最后保存日期：2021-12-27 10:07:21


[2021-12-27 10:07:35]
使用默认路径！
../Modbus-RTU-Master/record.txt

[2021-12-27 10:07:44]
保存至路径：../Modbus-RTU-Master/record.txt
文件名称：record.txt
文件大小：17836
创建日期：2021-12-24 13:17:23
最后保存日期：2021-12-27 10:07:33


[2021-12-27 10:58:54]
保存至路径：../Modbus-RTU-Master/record.txt
文件名称：record.txt
文件大小：18110
创建日期：2021-12-24 13:17:23
最后保存日期：2021-12-27 10:07:44


串口关闭成功

[2021-12-27 11:04:09]
保存至路径：../Modbus-RTU-Master/record.txt
文件名称：record.txt
文件大小：18307
创建日期：2021-12-24 13:17:23
最后保存日期：2021-12-27 10:58:54


串口关闭成功

[2021-12-27 11:04:53]
保存至路径：../Modbus-RTU-Master/record.txt
文件名称：record.txt
文件大小：18524
创建日期：2021-12-24 13:17:23
最后保存日期：2021-12-27 11:04:09


[2021-12-27 11:04:53]
保存至路径：../Modbus-RTU-Master/record.txt
文件名称：record.txt
文件大小：18741
创建日期：2021-12-24 13:17:23
最后保存日期：2021-12-27 11:04:53


串口关闭成功

[2021-12-27 11:05:23]
串口打开成功！

[2021-12-27 11:05:23]
保存至路径：../Modbus-RTU-Master/record.txt
文件名称：record.txt
文件大小：18938
创建日期：2021-12-24 13:17:23
最后保存日期：2021-12-27 11:04:53


串口关闭成功

[2021-12-27 11:05:31]
保存至路径：../Modbus-RTU-Master/record.txt
文件名称：record.txt
文件大小：19200
创建日期：2021-12-24 13:17:23
最后保存日期：2021-12-27 11:05:23


[2021-12-27 11:05:49]
串口打开成功！

[2021-12-27 11:05:50]
串口关闭成功

[2021-12-27 11:05:51]
串口打开成功！

[2021-12-27 11:05:51]
串口关闭成功

[2021-12-27 11:05:57]
保存至路径：../Modbus-RTU-Master/record.txt
文件名称：record.txt
文件大小：19417
创建日期：2021-12-24 13:17:23
最后保存日期：2021-12-27 11:05:31


[2021-12-27 12:09:37]
保存至路径：../Modbus-RTU-Master/record.txt
文件名称：record.txt
文件大小：19788
创建日期：2021-12-24 13:17:23
最后保存日期：2021-12-27 11:05:57


[2021-12-27 12:11:44]
串口打开成功！

[2021-12-27 12:11:47]
串口关闭成功！

[2021-12-27 12:11:54]
保存至路径：../Modbus-RTU-Master/record.txt
文件名称：record.txt
文件大小：19985
创建日期：2021-12-24 13:17:23
最后保存日期：2021-12-27 12:09:37


[2021-12-27 12:12:06]
保存至路径：../Modbus-RTU-Master/record.txt
文件名称：record.txt
文件大小：20272
创建日期：2021-12-24 13:17:23
最后保存日期：2021-12-27 12:11:54


[2021-12-27 12:12:13]
串口打开成功！

[2021-12-27 12:12:15]
串口关闭成功！

[2021-12-27 12:12:18]
保存至路径：../Modbus-RTU-Master/record.txt
文件名称：record.txt
文件大小：20469
创建日期：2021-12-24 13:17:23
最后保存日期：2021-12-27 12:12:06


[2021-12-27 12:12:21]
串口打开成功！

[2021-12-27 12:12:22]
串口关闭成功！

[2021-12-27 12:12:30]
保存至路径：../Modbus-RTU-Master/record.txt
文件名称：record.txt
文件大小：20756
创建日期：2021-12-24 13:17:23
最后保存日期：2021-12-27 12:12:18


[2021-12-27 12:12:42]
保存至路径：../Modbus-RTU-Master/record.txt
文件名称：record.txt
文件大小：21043
创建日期：2021-12-24 13:17:23
最后保存日期：2021-12-27 12:12:30


[2021-12-27 12:12:54]
保存至路径：../Modbus-RTU-Master/record.txt
文件名称：record.txt
文件大小：21240
创建日期：2021-12-24 13:17:23
最后保存日期：2021-12-27 12:12:42


[2021-12-27 12:12:57]
保存至路径：../Modbus-RTU-Master/record.txt
文件名称：record.txt
文件大小：21437
创建日期：2021-12-24 13:17:23
最后保存日期：2021-12-27 12:12:54


[2021-12-27 12:23:02]
串口打开成功！

[2021-12-27 12:23:04]
串口关闭成功！

[2021-12-27 12:23:11]
串口打开成功！

[2021-12-27 12:23:12]
保存至路径：../Modbus-RTU-Master/record.txt
文件名称：record.txt
文件大小：21634
创建日期：2021-12-24 13:17:23
最后保存日期：2021-12-27 12:12:57


[2021-12-27 12:23:14]
串口关闭成功！

[2021-12-27 12:23:15]
串口打开成功！

[2021-12-27 12:23:16]
串口关闭成功！

[2021-12-27 12:23:19]
串口打开成功！

[2021-12-27 12:23:24]
保存至路径：../Modbus-RTU-Master/record.txt
文件名称：record.txt
文件大小：21966
创建日期：2021-12-24 13:17:23
最后保存日期：2021-12-27 12:23:12


[2021-12-27 12:23:28]
串口关闭成功！

[2021-12-27 12:23:29]
串口打开成功！

[2021-12-27 12:23:36]
保存至路径：../Modbus-RTU-Master/record.txt
文件名称：record.txt
文件大小：22343
创建日期：2021-12-24 13:17:23
最后保存日期：2021-12-27 12:23:24


[2021-12-27 12:23:37]
串口关闭成功！

[2021-12-27 12:23:38]
串口打开成功！

[2021-12-27 12:23:40]
串口关闭成功！

[2021-12-27 12:23:47]
串口打开成功！

[2021-12-27 12:23:48]
保存至路径：../Modbus-RTU-Master/record.txt
文件名称：record.txt
文件大小：22630
创建日期：2021-12-24 13:17:23
最后保存日期：2021-12-27 12:23:36


[2021-12-27 12:23:50]
串口关闭成功！

[2021-12-27 12:24:00]
保存至路径：../Modbus-RTU-Master/record.txt
文件名称：record.txt
文件大小：23007
创建日期：2021-12-24 13:17:23
最后保存日期：2021-12-27 12:23:48


[2021-12-27 12:24:12]
保存至路径：../Modbus-RTU-Master/record.txt
文件名称：record.txt
文件大小：23249
创建日期：2021-12-24 13:17:23
最后保存日期：2021-12-27 12:24:00


[2021-12-27 12:24:24]
保存至路径：../Modbus-RTU-Master/record.txt
文件名称：record.txt
文件大小：23446
创建日期：2021-12-24 13:17:23
最后保存日期：2021-12-27 12:24:12


[2021-12-27 12:24:36]
保存至路径：../Modbus-RTU-Master/record.txt
文件名称：record.txt
文件大小：23643
创建日期：2021-12-24 13:17:23
最后保存日期：2021-12-27 12:24:24


[2021-12-27 12:24:48]
保存至路径：../Modbus-RTU-Master/record.txt
文件名称：record.txt
文件大小：23840
创建日期：2021-12-24 13:17:23
最后保存日期：2021-12-27 12:24:36


[2021-12-27 12:25:00]
保存至路径：../Modbus-RTU-Master/record.txt
文件名称：record.txt
文件大小：24037
创建日期：2021-12-24 13:17:23
最后保存日期：2021-12-27 12:24:48


[2021-12-27 12:25:12]
保存至路径：../Modbus-RTU-Master/record.txt
文件名称：record.txt
文件大小：24234
创建日期：2021-12-24 13:17:23
最后保存日期：2021-12-27 12:25:00


[2021-12-27 12:25:24]
保存至路径：../Modbus-RTU-Master/record.txt
文件名称：record.txt
文件大小：24431
创建日期：2021-12-24 13:17:23
最后保存日期：2021-12-27 12:25:12


[2021-12-27 12:25:36]
保存至路径：../Modbus-RTU-Master/record.txt
文件名称：record.txt
文件大小：24628
创建日期：2021-12-24 13:17:23
最后保存日期：2021-12-27 12:25:24


[2021-12-27 12:25:48]
保存至路径：../Modbus-RTU-Master/record.txt
文件名称：record.txt
文件大小：24825
创建日期：2021-12-24 13:17:23
最后保存日期：2021-12-27 12:25:36


[2021-12-27 12:26:00]
保存至路径：../Modbus-RTU-Master/record.txt
文件名称：record.txt
文件大小：25022
创建日期：2021-12-24 13:17:23
最后保存日期：2021-12-27 12:25:48


[2021-12-27 12:26:12]
保存至路径：../Modbus-RTU-Master/record.txt
文件名称：record.txt
文件大小：25219
创建日期：2021-12-24 13:17:23
最后保存日期：2021-12-27 12:26:00


[2021-12-27 12:26:24]
保存至路径：../Modbus-RTU-Master/record.txt
文件名称：record.txt
文件大小：25416
创建日期：2021-12-24 13:17:23
最后保存日期：2021-12-27 12:26:12


[2021-12-27 12:26:34]
串口打开失败，请重新设置！

[2021-12-27 12:26:36]
保存至路径：../Modbus-RTU-Master/record.txt
文件名称：record.txt
文件大小：25613
创建日期：2021-12-24 13:17:23
最后保存日期：2021-12-27 12:26:24


[2021-12-27 12:26:40]
串口打开成功！

[2021-12-27 12:26:48]
保存至路径：../Modbus-RTU-Master/record.txt
文件名称：record.txt
文件大小：25873
创建日期：2021-12-24 13:17:23
最后保存日期：2021-12-27 12:26:36


[2021-12-27 12:27:00]
保存至路径：../Modbus-RTU-Master/record.txt
文件名称：record.txt
文件大小：26115
创建日期：2021-12-24 13:17:23
最后保存日期：2021-12-27 12:26:48


[2021-12-27 12:27:12]
保存至路径：../Modbus-RTU-Master/record.txt
文件名称：record.txt
文件大小：26312
创建日期：2021-12-24 13:17:23
最后保存日期：2021-12-27 12:27:00


[2021-12-27 12:27:24]
保存至路径：../Modbus-RTU-Master/record.txt
文件名称：record.txt
文件大小：26509
创建日期：2021-12-24 13:17:23
最后保存日期：2021-12-27 12:27:12


[2021-12-27 12:27:31]
串口关闭成功！

[2021-12-27 12:27:32]
串口打开成功！

[2021-12-27 12:27:33]
串口关闭成功！

[2021-12-27 12:27:36]
保存至路径：../Modbus-RTU-Master/record.txt
文件名称：record.txt
文件大小：26706
创建日期：2021-12-24 13:17:23
最后保存日期：2021-12-27 12:27:24


[2021-12-27 12:27:48]
保存至路径：../Modbus-RTU-Master/record.txt
文件名称：record.txt
文件大小：27038
创建日期：2021-12-24 13:17:23
最后保存日期：2021-12-27 12:27:36


[2021-12-27 12:28:00]
保存至路径：../Modbus-RTU-Master/record.txt
文件名称：record.txt
文件大小：27235
创建日期：2021-12-24 13:17:23
最后保存日期：2021-12-27 12:27:48


[2021-12-27 12:28:12]
保存至路径：../Modbus-RTU-Master/record.txt
文件名称：record.txt
文件大小：27432
创建日期：2021-12-24 13:17:23
最后保存日期：2021-12-27 12:28:00


[2021-12-27 12:28:24]
保存至路径：../Modbus-RTU-Master/record.txt
文件名称：record.txt
文件大小：27629
创建日期：2021-12-24 13:17:23
最后保存日期：2021-12-27 12:28:12


[2021-12-27 12:28:36]
保存至路径：../Modbus-RTU-Master/record.txt
文件名称：record.txt
文件大小：27826
创建日期：2021-12-24 13:17:23
最后保存日期：2021-12-27 12:28:24


[2021-12-27 12:28:48]
保存至路径：../Modbus-RTU-Master/record.txt
文件名称：record.txt
文件大小：28023
创建日期：2021-12-24 13:17:23
最后保存日期：2021-12-27 12:28:36


[2021-12-27 12:29:00]
保存至路径：../Modbus-RTU-Master/record.txt
文件名称：record.txt
文件大小：28220
创建日期：2021-12-24 13:17:23
最后保存日期：2021-12-27 12:28:48


[2021-12-27 12:29:09]
串口打开失败，请重新设置！

[2021-12-27 12:29:12]
保存至路径：../Modbus-RTU-Master/record.txt
文件名称：record.txt
文件大小：28417
创建日期：2021-12-24 13:17:23
最后保存日期：2021-12-27 12:29:00


[2021-12-27 12:29:13]
串口打开成功！

[2021-12-27 12:29:18]
串口关闭成功！

[2021-12-27 12:29:23]
保存至路径：../Modbus-RTU-Master/record.txt
文件名称：record.txt
文件大小：28677
创建日期：2021-12-24 13:17:23
最后保存日期：2021-12-27 12:29:12


[2021-12-27 12:33:00]
串口打开成功！

[2021-12-27 12:33:03]
保存至路径：../Modbus-RTU-Master/record.txt
文件名称：record.txt
文件大小：28964
创建日期：2021-12-24 13:17:23
最后保存日期：2021-12-27 12:29:23


[2021-12-27 12:33:04]
串口关闭成功！

[2021-12-27 12:33:05]
串口打开失败，请重新设置！

[2021-12-27 12:33:09]
串口打开成功！

[2021-12-27 12:33:15]
保存至路径：../Modbus-RTU-Master/record.txt
文件名称：record.txt
文件大小：29206
创建日期：2021-12-24 13:17:23
最后保存日期：2021-12-27 12:33:03


[2021-12-27 12:33:22]
保存至路径：../Modbus-RTU-Master/record.txt
文件名称：record.txt
文件大小：29556
创建日期：2021-12-24 13:17:23
最后保存日期：2021-12-27 12:33:15


[2021-12-27 12:35:59]
串口打开失败，请重新设置！

[2021-12-27 12:36:01]
串口打开失败，请重新设置！

[2021-12-27 12:36:03]
串口打开失败，请重新设置！

[2021-12-27 12:36:03]
保存至路径：../Modbus-RTU-Master/record.txt
文件名称：record.txt
文件大小：29753
创建日期：2021-12-24 13:17:23
最后保存日期：2021-12-27 12:33:22


[2021-12-27 12:36:04]
串口打开失败，请重新设置！

[2021-12-27 12:36:05]
串口打开失败，请重新设置！

[2021-12-27 12:36:05]
串口打开失败，请重新设置！

[2021-12-27 12:36:07]
串口打开失败，请重新设置！

[2021-12-27 12:36:08]
串口打开失败，请重新设置！

[2021-12-27 12:36:11]
保存至路径：../Modbus-RTU-Master/record.txt
文件名称：record.txt
文件大小：30139
创建日期：2021-12-24 13:17:23
最后保存日期：2021-12-27 12:36:03


[2021-12-27 12:37:47]
串口打开成功！

[2021-12-27 12:37:51]
保存至路径：../Modbus-RTU-Master/record.txt
文件名称：record.txt
文件大小：30651
创建日期：2021-12-24 13:17:23
最后保存日期：2021-12-27 12:36:11


[2021-12-27 12:37:57]
串口关闭成功！

[2021-12-27 12:37:58]
串口打开成功！

[2021-12-27 12:37:58]
串口关闭成功！

[2021-12-27 12:38:01]
串口打开成功！

[2021-12-27 12:38:02]
串口关闭成功！

[2021-12-27 12:38:03]
保存至路径：../Modbus-RTU-Master/record.txt
文件名称：record.txt
文件大小：30893
创建日期：2021-12-24 13:17:23
最后保存日期：2021-12-27 12:37:51


[2021-12-27 12:38:15]
保存至路径：../Modbus-RTU-Master/record.txt
文件名称：record.txt
文件大小：31315
创建日期：2021-12-24 13:17:23
最后保存日期：2021-12-27 12:38:03


[2021-12-27 12:38:27]
保存至路径：../Modbus-RTU-Master/record.txt
文件名称：record.txt
文件大小：31512
创建日期：2021-12-24 13:17:23
最后保存日期：2021-12-27 12:38:15


[2021-12-27 12:38:39]
保存至路径：../Modbus-RTU-Master/record.txt
文件名称：record.txt
文件大小：31709
创建日期：2021-12-24 13:17:23
最后保存日期：2021-12-27 12:38:27


[2021-12-27 12:38:47]
保存至路径：../Modbus-RTU-Master/record.txt
文件名称：record.txt
文件大小：31906
创建日期：2021-12-24 13:17:23
最后保存日期：2021-12-27 12:38:39


[2021-12-27 13:29:10]
串口打开成功！

[2021-12-27 13:29:17]
串口关闭成功！

[2021-12-27 13:29:19]
串口打开成功！

[2021-12-27 13:29:20]
保存至路径：../Modbus-RTU-Master/record.txt
文件名称：record.txt
文件大小：32103
创建日期：2021-12-24 13:17:23
最后保存日期：2021-12-27 12:38:47


[2021-12-27 13:29:24]
串口关闭成功！

[2021-12-27 13:29:32]
保存至路径：../Modbus-RTU-Master/record.txt
文件名称：record.txt
文件大小：32435
创建日期：2021-12-24 13:17:23
最后保存日期：2021-12-27 13:29:20


[2021-12-27 13:29:34]
保存至路径：../Modbus-RTU-Master/record.txt
文件名称：record.txt
文件大小：32677
创建日期：2021-12-24 13:17:23
最后保存日期：2021-12-27 13:29:32


[2021-12-27 13:31:18]
保存至路径：../Modbus-RTU-Master/record.txt
文件名称：record.txt
文件大小：32874
创建日期：2021-12-24 13:17:23
最后保存日期：2021-12-27 13:29:34


[2021-12-27 13:31:30]
保存至路径：../Modbus-RTU-Master/record.txt
文件名称：record.txt
文件大小：33071
创建日期：2021-12-24 13:17:23
最后保存日期：2021-12-27 13:31:18


[2021-12-27 13:31:42]
保存至路径：../Modbus-RTU-Master/record.txt
文件名称：record.txt
文件大小：33268
创建日期：2021-12-24 13:17:23
最后保存日期：2021-12-27 13:31:30


[2021-12-27 13:31:54]
保存至路径：../Modbus-RTU-Master/record.txt
文件名称：record.txt
文件大小：33465
创建日期：2021-12-24 13:17:23
最后保存日期：2021-12-27 13:31:42


[2021-12-27 13:32:06]
保存至路径：../Modbus-RTU-Master/record.txt
文件名称：record.txt
文件大小：33662
创建日期：2021-12-24 13:17:23
最后保存日期：2021-12-27 13:31:54


[2021-12-27 13:32:18]
保存至路径：../Modbus-RTU-Master/record.txt
文件名称：record.txt
文件大小：33859
创建日期：2021-12-24 13:17:23
最后保存日期：2021-12-27 13:32:06


[2021-12-27 13:32:30]
保存至路径：../Modbus-RTU-Master/record.txt
文件名称：record.txt
文件大小：34056
创建日期：2021-12-24 13:17:23
最后保存日期：2021-12-27 13:32:18


[2021-12-27 13:32:42]
保存至路径：../Modbus-RTU-Master/record.txt
文件名称：record.txt
文件大小：34253
创建日期：2021-12-24 13:17:23
最后保存日期：2021-12-27 13:32:30


[2021-12-27 13:32:54]
保存至路径：../Modbus-RTU-Master/record.txt
文件名称：record.txt
文件大小：34450
创建日期：2021-12-24 13:17:23
最后保存日期：2021-12-27 13:32:42


[2021-12-27 13:55:28]
保存至路径：../Modbus-RTU-Master/record.txt
文件名称：record.txt
文件大小：34647
创建日期：2021-12-24 13:17:23
最后保存日期：2021-12-27 13:32:54


[2021-12-27 14:51:08]
保存至路径：../Modbus-RTU-Master/record.txt
文件名称：record.txt
文件大小：34844
创建日期：2021-12-24 13:17:23
最后保存日期：2021-12-27 13:55:28


[2021-12-27 14:51:20]
保存至路径：../Modbus-RTU-Master/record.txt
文件名称：record.txt
文件大小：35041
创建日期：2021-12-24 13:17:23
最后保存日期：2021-12-27 14:51:08


[2021-12-27 14:51:32]
保存至路径：../Modbus-RTU-Master/record.txt
文件名称：record.txt
文件大小：35238
创建日期：2021-12-24 13:17:23
最后保存日期：2021-12-27 14:51:20


[2021-12-27 14:51:44]
保存至路径：../Modbus-RTU-Master/record.txt
文件名称：record.txt
文件大小：35435
创建日期：2021-12-24 13:17:23
最后保存日期：2021-12-27 14:51:32


[2021-12-27 14:51:46]
串口打开成功！

[2021-12-27 14:51:56]
保存至路径：../Modbus-RTU-Master/record.txt
文件名称：record.txt
文件大小：35632
创建日期：2021-12-24 13:17:23
最后保存日期：2021-12-27 14:51:44


[2021-12-27 14:52:08]
保存至路径：../Modbus-RTU-Master/record.txt
文件名称：record.txt
文件大小：35874
创建日期：2021-12-24 13:17:23
最后保存日期：2021-12-27 14:51:56


[2021-12-27 14:52:20]
报文发送:  01 00 00 30 00 48 01 cc 

[2021-12-27 14:52:20]
保存至路径：../Modbus-RTU-Master/record.txt
文件名称：record.txt
文件大小：36071
创建日期：2021-12-24 13:17:23
最后保存日期：2021-12-27 14:52:08


[2021-12-27 14:52:32]
保存至路径：../Modbus-RTU-Master/record.txt
文件名称：record.txt
文件大小：36331
创建日期：2021-12-24 13:17:23
最后保存日期：2021-12-27 14:52:20


[2021-12-27 14:52:37]
报文发送:  01 00 00 30 00 48 01 cc 

[2021-12-27 14:52:44]
保存至路径：../Modbus-RTU-Master/record.txt
文件名称：record.txt
文件大小：36528
创建日期：2021-12-24 13:17:23
最后保存日期：2021-12-27 14:52:32


[2021-12-27 14:52:56]
保存至路径：../Modbus-RTU-Master/record.txt
文件名称：record.txt
文件大小：36788
创建日期：2021-12-24 13:17:23
最后保存日期：2021-12-27 14:52:44


[2021-12-27 14:52:57]
报文发送:  01 00 00 30 00 48 01 cc 

[2021-12-27 14:53:08]
保存至路径：../Modbus-RTU-Master/record.txt
文件名称：record.txt
文件大小：36985
创建日期：2021-12-24 13:17:23
最后保存日期：2021-12-27 14:52:56


[2021-12-27 14:53:13]
串口关闭成功！

[2021-12-27 14:53:17]
文件路径设置成功！
C:/Users/19943/Desktop/Modbus/Modbus-RTU/Modbus-RTU-Master/Modbus-RTU-Master/record.txt

[2021-12-27 14:53:20]
保存至路径：C:/Users/19943/Desktop/Modbus/Modbus-RTU/Modbus-RTU-Master/Modbus-RTU-Master/record.txt
文件名称：record.txt
文件大小：37245
创建日期：2021-12-24 13:17:23
最后保存日期：2021-12-27 14:53:08


[2021-12-27 14:53:32]
保存至路径：C:/Users/19943/Desktop/Modbus/Modbus-RTU/Modbus-RTU-Master/Modbus-RTU-Master/record.txt
文件名称：record.txt
文件大小：37682
创建日期：2021-12-24 13:17:23
最后保存日期：2021-12-27 14:53:20


[2021-12-27 14:53:44]
保存至路径：C:/Users/19943/Desktop/Modbus/Modbus-RTU/Modbus-RTU-Master/Modbus-RTU-Master/record.txt
文件名称：record.txt
文件大小：37935
创建日期：2021-12-24 13:17:23
最后保存日期：2021-12-27 14:53:32


[2021-12-27 14:53:56]
保存至路径：C:/Users/19943/Desktop/Modbus/Modbus-RTU/Modbus-RTU-Master/Modbus-RTU-Master/record.txt
文件名称：record.txt
文件大小：38188
创建日期：2021-12-24 13:17:23
最后保存日期：2021-12-27 14:53:44


[2021-12-27 14:53:58]
保存至路径：C:/Users/19943/Desktop/Modbus/Modbus-RTU/Modbus-RTU-Master/Modbus-RTU-Master/record.txt
文件名称：record.txt
文件大小：38441
创建日期：2021-12-24 13:17:23
最后保存日期：2021-12-27 14:53:56


[2021-12-27 14:56:00]
串口打开成功！

[2021-12-27 14:56:03]
保存至路径：../Modbus-RTU-Master/record.txt
文件名称：record.txt
文件大小：38694
创建日期：2021-12-24 13:17:23
最后保存日期：2021-12-27 14:53:58


[2021-12-27 14:56:15]
保存至路径：../Modbus-RTU-Master/record.txt
文件名称：record.txt
文件大小：38936
创建日期：2021-12-24 13:17:23
最后保存日期：2021-12-27 14:56:03


[2021-12-27 14:56:18]
报文发送:  01 54 4f 1b 7b 53 34 33 

[2021-12-27 14:56:27]
保存至路径：../Modbus-RTU-Master/record.txt
文件名称：record.txt
文件大小：39133
创建日期：2021-12-24 13:17:23
最后保存日期：2021-12-27 14:56:15


[2021-12-27 14:56:33]
保存至路径：../Modbus-RTU-Master/record.txt
文件名称：record.txt
文件大小：39393
创建日期：2021-12-24 13:17:23
最后保存日期：2021-12-27 14:56:27


[2021-12-27 15:00:07]
串口打开成功！

[2021-12-27 15:00:13]
保存至路径：../Modbus-RTU-Master/record.txt
文件名称：record.txt
文件大小：39590
创建日期：2021-12-24 13:17:23
最后保存日期：2021-12-27 14:56:33


[2021-12-27 15:00:14]
报文发送:  01 07 24 00 49 03 ab 19 

[2021-12-27 15:00:25]
保存至路径：../Modbus-RTU-Master/record.txt
文件名称：record.txt
文件大小：39832
创建日期：2021-12-24 13:17:23
最后保存日期：2021-12-27 15:00:13


[2021-12-27 15:00:37]
保存至路径：../Modbus-RTU-Master/record.txt
文件名称：record.txt
文件大小：40092
创建日期：2021-12-24 13:17:23
最后保存日期：2021-12-27 15:00:25


[2021-12-27 15:00:39]
报文发送:  01 07 24 00 49 03 ab 19 

[2021-12-27 15:00:44]
报文发送:  01 07 24 00 49 03 ab 19 

[2021-12-27 15:00:49]
保存至路径：../Modbus-RTU-Master/record.txt
文件名称：record.txt
文件大小：40289
创建日期：2021-12-24 13:17:23
最后保存日期：2021-12-27 15:00:37


[2021-12-27 15:00:52]
报文发送:  02 07 24 00 49 03 ab 5d 

[2021-12-27 15:00:56]
报文发送:  02 07 24 00 49 03 ab 5d 

[2021-12-27 15:01:01]
保存至路径：../Modbus-RTU-Master/record.txt
文件名称：record.txt
文件大小：40612
创建日期：2021-12-24 13:17:23
最后保存日期：2021-12-27 15:00:49


[2021-12-27 15:01:18]
保存至路径：../Modbus-RTU-Master/record.txt
文件名称：record.txt
文件大小：40935
创建日期：2021-12-24 13:17:23
最后保存日期：2021-12-27 15:01:01


[2021-12-27 15:01:25]
保存至路径：../Modbus-RTU-Master/record.txt
文件名称：record.txt
文件大小：41132
创建日期：2021-12-24 13:17:23
最后保存日期：2021-12-27 15:01:18


[2021-12-27 15:01:37]
保存至路径：../Modbus-RTU-Master/record.txt
文件名称：record.txt
文件大小：41329
创建日期：2021-12-24 13:17:23
最后保存日期：2021-12-27 15:01:25


[2021-12-27 15:01:49]
保存至路径：../Modbus-RTU-Master/record.txt
文件名称：record.txt
文件大小：41526
创建日期：2021-12-24 13:17:23
最后保存日期：2021-12-27 15:01:37


[2021-12-27 15:02:01]
保存至路径：../Modbus-RTU-Master/record.txt
文件名称：record.txt
文件大小：41723
创建日期：2021-12-24 13:17:23
最后保存日期：2021-12-27 15:01:49


[2021-12-27 15:02:13]
保存至路径：../Modbus-RTU-Master/record.txt
文件名称：record.txt
文件大小：41920
创建日期：2021-12-24 13:17:23
最后保存日期：2021-12-27 15:02:01


[2021-12-27 15:02:17]
保存至路径：../Modbus-RTU-Master/record.txt
文件名称：record.txt
文件大小：42117
创建日期：2021-12-24 13:17:23
最后保存日期：2021-12-27 15:02:13


[2021-12-27 15:02:36]
保存至路径：../Modbus-RTU-Master/record.txt
文件名称：record.txt
文件大小：42314
创建日期：2021-12-24 13:17:23
最后保存日期：2021-12-27 15:02:17


[2021-12-27 15:02:47]
报文发送:  01 00 00 34 00 67 00 0f 

[2021-12-27 15:02:48]
保存至路径：../Modbus-RTU-Master/record.txt
文件名称：record.txt
文件大小：42511
创建日期：2021-12-24 13:17:23
最后保存日期：2021-12-27 15:02:36


[2021-12-27 15:03:00]
保存至路径：../Modbus-RTU-Master/record.txt
文件名称：record.txt
文件大小：42771
创建日期：2021-12-24 13:17:23
最后保存日期：2021-12-27 15:02:48


[2021-12-27 15:03:12]
保存至路径：../Modbus-RTU-Master/record.txt
文件名称：record.txt
文件大小：42968
创建日期：2021-12-24 13:17:23
最后保存日期：2021-12-27 15:03:00


[2021-12-27 15:03:15]
报文发送:  01 00 00 34 00 67 00 0f 

[2021-12-27 15:03:24]
保存至路径：../Modbus-RTU-Master/record.txt
文件名称：record.txt
文件大小：43165
创建日期：2021-12-24 13:17:23
最后保存日期：2021-12-27 15:03:12


[2021-12-27 15:03:29]
保存至路径：../Modbus-RTU-Master/record.txt
文件名称：record.txt
文件大小：43425
创建日期：2021-12-24 13:17:23
最后保存日期：2021-12-27 15:03:24


[2021-12-27 15:11:09]
保存至路径：../Modbus-RTU-Master/record.txt
文件名称：record.txt
文件大小：43622
创建日期：2021-12-24 13:17:23
最后保存日期：2021-12-27 15:03:29


[2021-12-27 15:11:41]
串口打开成功！

[2021-12-27 15:11:41]
保存至路径：../Modbus-RTU-Master/record.txt
文件名称：record.txt
文件大小：43819
创建日期：2021-12-24 13:17:23
最后保存日期：2021-12-27 15:11:09


[2021-12-27 15:11:53]
保存至路径：../Modbus-RTU-Master/record.txt
文件名称：record.txt
文件大小：44061
创建日期：2021-12-24 13:17:23
最后保存日期：2021-12-27 15:11:41


[2021-12-27 15:12:05]
保存至路径：../Modbus-RTU-Master/record.txt
文件名称：record.txt
文件大小：44258
创建日期：2021-12-24 13:17:23
最后保存日期：2021-12-27 15:11:53


[2021-12-27 15:12:17]
保存至路径：../Modbus-RTU-Master/record.txt
文件名称：record.txt
文件大小：44455
创建日期：2021-12-24 13:17:23
最后保存日期：2021-12-27 15:12:05


[2021-12-27 15:12:18]
串口关闭成功！

[2021-12-27 15:12:18]
串口打开成功！

[2021-12-27 15:12:23]
报文发送:  01 45 8b f4 fc 45 77 7a 

[2021-12-27 15:12:29]
保存至路径：../Modbus-RTU-Master/record.txt
文件名称：record.txt
文件大小：44652
创建日期：2021-12-24 13:17:23
最后保存日期：2021-12-27 15:12:17


[2021-12-27 15:12:32]
报文发送:  01 45 8b f4 fc 45 77 7a 

[2021-12-27 15:12:41]
保存至路径：../Modbus-RTU-Master/record.txt
文件名称：record.txt
文件大小：45002
创建日期：2021-12-24 13:17:23
最后保存日期：2021-12-27 15:12:29


[2021-12-27 15:12:42]
文件路径设置成功！
C:/Users/19943/Desktop/Modbus/Modbus-RTU/Modbus-RTU-Master/Modbus-RTU-Master/record.txt

[2021-12-27 15:12:51]
保存至路径：C:/Users/19943/Desktop/Modbus/Modbus-RTU/Modbus-RTU-Master/Modbus-RTU-Master/record.txt
文件名称：record.txt
文件大小：45262
创建日期：2021-12-24 13:17:23
最后保存日期：2021-12-27 15:12:41


[2021-12-27 15:16:35]
串口打开失败，请重新设置！

[2021-12-27 15:16:37]
保存至路径：../Modbus-RTU-Master/record.txt
文件名称：record.txt
文件大小：45654
创建日期：2021-12-24 13:17:23
最后保存日期：2021-12-27 15:12:51


[2021-12-27 15:20:08]
报文发送:  01 01 00 00 50 20 50 18 

[2021-12-27 15:20:14]
保存至路径：../Modbus-RTU-Master/record.txt
文件名称：record.txt
文件大小：45914
创建日期：2021-12-24 13:17:23
最后保存日期：2021-12-27 15:16:37


[2021-12-27 15:20:25]
报文发送:  01 03 15 97 7c 18 be e6 

[2021-12-27 15:20:26]
保存至路径：../Modbus-RTU-Master/record.txt
文件名称：record.txt
文件大小：46174
创建日期：2021-12-24 13:17:23
最后保存日期：2021-12-27 15:20:14


[2021-12-27 15:20:38]
保存至路径：../Modbus-RTU-Master/record.txt
文件名称：record.txt
文件大小：46434
创建日期：2021-12-24 13:17:23
最后保存日期：2021-12-27 15:20:26


[2021-12-27 15:20:42]
保存至路径：../Modbus-RTU-Master/record.txt
文件名称：record.txt
文件大小：46631
创建日期：2021-12-24 13:17:23
最后保存日期：2021-12-27 15:20:38


[2021-12-27 15:25:23]
串口打开成功！

[2021-12-27 15:25:32]
保存至路径：../Modbus-RTU-Master/record.txt
文件名称：record.txt
文件大小：46828
创建日期：2021-12-24 13:17:23
最后保存日期：2021-12-27 15:20:42


[2021-12-27 15:25:33]
报文发送:  01 01 00 00 00 03 50 18 

[2021-12-27 15:25:44]
保存至路径：../Modbus-RTU-Master/record.txt
文件名称：record.txt
文件大小：47070
创建日期：2021-12-24 13:17:23
最后保存日期：2021-12-27 15:25:32


[2021-12-27 15:25:44]
报文发送:  01 03 00 00 00 04 f1 d8 

[2021-12-27 15:25:53]
保存至路径：../Modbus-RTU-Master/record.txt
文件名称：record.txt
文件大小：47330
创建日期：2021-12-24 13:17:23
最后保存日期：2021-12-27 15:25:44


[2021-12-27 15:37:20]
保存至路径：../Modbus-RTU-Master/record.txt
文件名称：record.txt
文件大小：47590
创建日期：2021-12-24 13:17:23
最后保存日期：2021-12-27 15:25:53


[2021-12-27 15:37:21]
报文发送:  01 03 00 00 00 04 f1 d8 

[2021-12-27 15:37:32]
保存至路径：../Modbus-RTU-Master/record.txt
文件名称：record.txt
文件大小：47787
创建日期：2021-12-24 13:17:23
最后保存日期：2021-12-27 15:37:20


[2021-12-27 15:37:44]
保存至路径：../Modbus-RTU-Master/record.txt
文件名称：record.txt
文件大小：48047
创建日期：2021-12-24 13:17:23
最后保存日期：2021-12-27 15:37:32


[2021-12-27 15:37:56]
保存至路径：../Modbus-RTU-Master/record.txt
文件名称：record.txt
文件大小：48244
创建日期：2021-12-24 13:17:23
最后保存日期：2021-12-27 15:37:44


[2021-12-27 15:38:08]
保存至路径：../Modbus-RTU-Master/record.txt
文件名称：record.txt
文件大小：48441
创建日期：2021-12-24 13:17:23
最后保存日期：2021-12-27 15:37:56


[2021-12-27 15:38:37]
保存至路径：../Modbus-RTU-Master/record.txt
文件名称：record.txt
文件大小：48638
创建日期：2021-12-24 13:17:23
最后保存日期：2021-12-27 15:38:08


[2021-12-27 15:38:42]
串口打开成功！

[2021-12-27 15:38:49]
保存至路径：../Modbus-RTU-Master/record.txt
文件名称：record.txt
文件大小：48835
创建日期：2021-12-24 13:17:23
最后保存日期：2021-12-27 15:38:37


[2021-12-27 15:38:53]
报文发送:  01 01 00 00 00 04 3d c9 

[2021-12-27 15:38:59]
报文发送:  01 03 00 00 00 04 44 09 

[2021-12-27 15:39:01]
保存至路径：../Modbus-RTU-Master/record.txt
文件名称：record.txt
文件大小：49077
创建日期：2021-12-24 13:17:23
最后保存日期：2021-12-27 15:38:49


[2021-12-27 15:39:04]
报文发送:  01 01 00 00 00 04 3d c9 

[2021-12-27 15:39:13]
保存至路径：../Modbus-RTU-Master/record.txt
文件名称：record.txt
文件大小：49400
创建日期：2021-12-24 13:17:23
最后保存日期：2021-12-27 15:39:01


[2021-12-27 15:39:25]
保存至路径：../Modbus-RTU-Master/record.txt
文件名称：record.txt
文件大小：49660
创建日期：2021-12-24 13:17:23
最后保存日期：2021-12-27 15:39:13


[2021-12-27 15:39:37]
保存至路径：../Modbus-RTU-Master/record.txt
文件名称：record.txt
文件大小：49857
创建日期：2021-12-24 13:17:23
最后保存日期：2021-12-27 15:39:25


[2021-12-27 15:39:49]
保存至路径：../Modbus-RTU-Master/record.txt
文件名称：record.txt
文件大小：50054
创建日期：2021-12-24 13:17:23
最后保存日期：2021-12-27 15:39:37


[2021-12-27 15:40:01]
保存至路径：../Modbus-RTU-Master/record.txt
文件名称：record.txt
文件大小：50251
创建日期：2021-12-24 13:17:23
最后保存日期：2021-12-27 15:39:49


[2021-12-27 15:40:13]
保存至路径：../Modbus-RTU-Master/record.txt
文件名称：record.txt
文件大小：50448
创建日期：2021-12-24 13:17:23
最后保存日期：2021-12-27 15:40:01


[2021-12-27 15:40:16]
报文发送:  01 03 00 00 00 04 44 09 

[2021-12-27 15:40:16]
报文接收：  01 03 08 00 00 00 00 00 00 00 00 95 d7 

[2021-12-27 15:40:25]
保存至路径：../Modbus-RTU-Master/record.txt
文件名称：record.txt
文件大小：50645
创建日期：2021-12-24 13:17:23
最后保存日期：2021-12-27 15:40:13


[2021-12-27 15:40:37]
保存至路径：../Modbus-RTU-Master/record.txt
文件名称：record.txt
文件大小：50985
创建日期：2021-12-24 13:17:23
最后保存日期：2021-12-27 15:40:25


[2021-12-27 15:40:40]
报文发送:  01 03 00 00 00 04 44 09 

[2021-12-27 15:40:40]
报文接收：  01 

[2021-12-27 15:40:40]
报文接收：  03 08 00 01 00 02 00 03 00 00 0c d7 

[2021-12-27 15:40:43]
报文发送:  01 03 00 00 00 04 44 09 

[2021-12-27 15:40:43]
报文接收：  01 03 08 

[2021-12-27 15:40:43]
报文接收：  00 01 00 02 00 03 00 00 0c d7 

[2021-12-27 15:40:49]
保存至路径：../Modbus-RTU-Master/record.txt
文件名称：record.txt
文件大小：51182
创建日期：2021-12-24 13:17:23
最后保存日期：2021-12-27 15:40:37


[2021-12-27 15:40:50]
报文发送:  01 03 00 00 00 04 44 09 

[2021-12-27 15:40:50]
报文接收：  01 03 08 00 01 

[2021-12-27 15:40:50]
报文接收：  00 02 00 03 00 00 0c d7 

[2021-12-27 15:41:01]
保存至路径：../Modbus-RTU-Master/record.txt
文件名称：record.txt
文件大小：51747
创建日期：2021-12-24 13:17:23
最后保存日期：2021-12-27 15:40:49


[2021-12-27 15:41:02]
报文发送:  01 03 00 00 00 04 44 09 

[2021-12-27 15:41:02]
报文接收：  01 03 08 00 01 00 02 

[2021-12-27 15:41:02]
报文接收：  00 03 00 00 0c d7 

[2021-12-27 15:41:13]
保存至路径：../Modbus-RTU-Master/record.txt
文件名称：record.txt
文件大小：52128
创建日期：2021-12-24 13:17:23
最后保存日期：2021-12-27 15:41:01


[2021-12-27 15:41:15]
报文发送:  01 03 00 00 00 04 44 09 

[2021-12-27 15:41:15]
报文接收：  01 03 08 00 01 00 02 00 03 

[2021-12-27 15:41:15]
报文接收：  00 00 0c d7 

[2021-12-27 15:41:25]
保存至路径：../Modbus-RTU-Master/record.txt
文件名称：record.txt
文件大小：52509
创建日期：2021-12-24 13:17:23
最后保存日期：2021-12-27 15:41:13


[2021-12-27 15:41:27]
报文发送:  01 03 00 00 00 04 44 09 

[2021-12-27 15:41:28]
报文接收：  01 03 08 00 01 00 02 00 03 00 00 

[2021-12-27 15:41:28]
报文接收：  0c d7 

[2021-12-27 15:41:37]
保存至路径：../Modbus-RTU-Master/record.txt
文件名称：record.txt
文件大小：52890
创建日期：2021-12-24 13:17:23
最后保存日期：2021-12-27 15:41:25


[2021-12-27 15:41:40]
使用默认路径！
../Modbus-RTU-Master/record.txt

[2021-12-27 15:41:49]
保存至路径：../Modbus-RTU-Master/record.txt
文件名称：record.txt
文件大小：53271
创建日期：2021-12-24 13:17:23
最后保存日期：2021-12-27 15:41:37


[2021-12-27 15:41:51]
保存至路径：../Modbus-RTU-Master/record.txt
文件名称：record.txt
文件大小：53545
创建日期：2021-12-24 13:17:23
最后保存日期：2021-12-27 15:41:49


[2021-12-27 15:43:59]
串口打开成功！

[2021-12-27 15:44:05]
报文发送:  01 01 00 00 00 03 7c 0b 

[2021-12-27 15:44:05]
报文接收：  01 01 01 00 51 88 

[2021-12-27 15:44:05]
报文发送:  01 01 00 00 00 03 7c 0b 

[2021-12-27 15:44:05]
保存至路径：../Modbus-RTU-Master/record.txt
文件名称：record.txt
文件大小：53742
创建日期：2021-12-24 13:17:23
最后保存日期：2021-12-27 15:41:51


[2021-12-27 15:44:06]
报文接收：  01 01 01 00 51 88 

[2021-12-27 15:44:06]
报文发送:  01 01 00 00 00 03 7c 0b 

[2021-12-27 15:44:06]
报文接收：  01 01 

[2021-12-27 15:44:06]
报文接收：  01 00 51 88 

[2021-12-27 15:44:17]
保存至路径：../Modbus-RTU-Master/record.txt
文件名称：record.txt
文件大小：54169
创建日期：2021-12-24 13:17:23
最后保存日期：2021-12-27 15:44:05


[2021-12-27 15:44:18]
报文发送:  01 01 00 00 00 03 7c 0b 

[2021-12-27 15:44:19]
报文接收：  01 01 01 00 51 88 

[2021-12-27 15:44:27]
报文发送:  01 01 00 00 00 03 7c 0b 

[2021-12-27 15:44:27]
报文接收：  01 01 01 00 51 

[2021-12-27 15:44:27]
报文接收：  88 

[2021-12-27 15:44:29]
保存至路径：../Modbus-RTU-Master/record.txt
文件名称：record.txt
文件大小：54588
创建日期：2021-12-24 13:17:23
最后保存日期：2021-12-27 15:44:17


[2021-12-27 15:44:41]
保存至路径：../Modbus-RTU-Master/record.txt
文件名称：record.txt
文件大小：55070
创建日期：2021-12-24 13:17:23
最后保存日期：2021-12-27 15:44:29


[2021-12-27 15:44:53]
保存至路径：../Modbus-RTU-Master/record.txt
文件名称：record.txt
文件大小：55267
创建日期：2021-12-24 13:17:23
最后保存日期：2021-12-27 15:44:41


[2021-12-27 15:45:05]
保存至路径：../Modbus-RTU-Master/record.txt
文件名称：record.txt
文件大小：55464
创建日期：2021-12-24 13:17:23
最后保存日期：2021-12-27 15:44:53


[2021-12-27 15:45:16]
保存至路径：../Modbus-RTU-Master/record.txt
文件名称：record.txt
文件大小：55661
创建日期：2021-12-24 13:17:23
最后保存日期：2021-12-27 15:45:05


[2021-12-27 15:54:59]
保存至路径：../Modbus-RTU-Master/record.txt
文件名称：record.txt
文件大小：55858
创建日期：2021-12-24 13:17:23
最后保存日期：2021-12-27 15:45:16


[2021-12-27 15:55:11]
保存至路径：../Modbus-RTU-Master/record.txt
文件名称：record.txt
文件大小：56055
创建日期：2021-12-24 13:17:23
最后保存日期：2021-12-27 15:54:59


[2021-12-27 15:55:23]
保存至路径：../Modbus-RTU-Master/record.txt
文件名称：record.txt
文件大小：56252
创建日期：2021-12-24 13:17:23
最后保存日期：2021-12-27 15:55:11


[2021-12-27 15:55:35]
保存至路径：../Modbus-RTU-Master/record.txt
文件名称：record.txt
文件大小：56449
创建日期：2021-12-24 13:17:23
最后保存日期：2021-12-27 15:55:23


[2021-12-27 15:55:39]
串口打开成功！

[2021-12-27 15:55:47]
保存至路径：../Modbus-RTU-Master/record.txt
文件名称：record.txt
文件大小：56646
创建日期：2021-12-24 13:17:23
最后保存日期：2021-12-27 15:55:35


[2021-12-27 15:55:59]
保存至路径：../Modbus-RTU-Master/record.txt
文件名称：record.txt
文件大小：56888
创建日期：2021-12-24 13:17:23
最后保存日期：2021-12-27 15:55:47


[2021-12-27 15:56:11]
保存至路径：../Modbus-RTU-Master/record.txt
文件名称：record.txt
文件大小：57085
创建日期：2021-12-24 13:17:23
最后保存日期：2021-12-27 15:55:59


[2021-12-27 15:56:15]
报文发送:  01 03 00 00 00 03 05 cb 

[2021-12-27 15:56:16]
报文接收：  01 03 06 00 00 00 00 00 00 21 75 

[2021-12-27 15:56:23]
保存至路径：../Modbus-RTU-Master/record.txt
文件名称：record.txt
文件大小：57282
创建日期：2021-12-24 13:17:23
最后保存日期：2021-12-27 15:56:11


[2021-12-27 15:56:30]
报文发送:  01 01 00 00 00 08 3d cc 

[2021-12-27 15:56:30]
报文接收：  01 01 01 

[2021-12-27 15:56:30]
报文接收：  a1 90 30 

[2021-12-27 15:56:35]
保存至路径：../Modbus-RTU-Master/record.txt
文件名称：record.txt
文件大小：57616
创建日期：2021-12-24 13:17:23
最后保存日期：2021-12-27 15:56:23


[2021-12-27 15:56:36]
报文发送:  01 01 00 00 00 08 3d cc 

[2021-12-27 15:56:36]
报文接收：  01 01 01 a1 90 30 

[2021-12-27 15:56:47]
保存至路径：../Modbus-RTU-Master/record.txt
文件名称：record.txt
文件大小：57976
创建日期：2021-12-24 13:17:23
最后保存日期：2021-12-27 15:56:35


[2021-12-27 15:56:59]
保存至路径：../Modbus-RTU-Master/record.txt
文件名称：record.txt
文件大小：58295
创建日期：2021-12-24 13:17:23
最后保存日期：2021-12-27 15:56:47


[2021-12-27 15:57:11]
保存至路径：../Modbus-RTU-Master/record.txt
文件名称：record.txt
文件大小：58492
创建日期：2021-12-24 13:17:23
最后保存日期：2021-12-27 15:56:59


[2021-12-27 15:57:23]
保存至路径：../Modbus-RTU-Master/record.txt
文件名称：record.txt
文件大小：58689
创建日期：2021-12-24 13:17:23
最后保存日期：2021-12-27 15:57:11


[2021-12-27 15:57:35]
保存至路径：../Modbus-RTU-Master/record.txt
文件名称：record.txt
文件大小：58886
创建日期：2021-12-24 13:17:23
最后保存日期：2021-12-27 15:57:23


[2021-12-27 15:57:37]
保存至路径：../Modbus-RTU-Master/record.txt
文件名称：record.txt
文件大小：59083
创建日期：2021-12-24 13:17:23
最后保存日期：2021-12-27 15:57:35


[2021-12-27 15:58:25]
串口打开成功！

[2021-12-27 15:58:27]
保存至路径：../Modbus-RTU-Master/record.txt
文件名称：record.txt
文件大小：59280
创建日期：2021-12-24 13:17:23
最后保存日期：2021-12-27 15:57:37


[2021-12-27 15:58:33]
报文发送:  01 01 00 00 00 04 3d c9 

[2021-12-27 15:58:33]
报文接收：  01 01 01 01 90 48 

[2021-12-27 15:58:39]
保存至路径：../Modbus-RTU-Master/record.txt
文件名称：record.txt
文件大小：59522
创建日期：2021-12-24 13:17:23
最后保存日期：2021-12-27 15:58:27


[2021-12-27 15:58:42]
报文发送:  01 03 00 00 00 04 44 09 

[2021-12-27 15:58:42]
报文接收：  01 03 08 00 00 00 00 00 

[2021-12-27 15:58:43]
报文接收：  00 00 00 95 d7 

[2021-12-27 15:58:51]
保存至路径：../Modbus-RTU-Master/record.txt
文件名称：record.txt
文件大小：59841
创建日期：2021-12-24 13:17:23
最后保存日期：2021-12-27 15:58:39


[2021-12-27 15:58:53]
报文发送:  01 03 00 00 00 04 44 09 

[2021-12-27 15:58:53]
报文接收：  01 03 08 00 00 00 00 00 00 00 

[2021-12-27 15:58:53]
报文接收：  00 95 d7 

[2021-12-27 15:58:55]
报文发送:  01 03 00 00 00 04 44 09 

[2021-12-27 15:58:55]
报文接收：  01 03 08 00 00 00 00 00 00 00 00 95 

[2021-12-27 15:58:55]
报文接收：  d7 

[2021-12-27 15:58:56]
报文发送:  01 03 00 00 00 04 44 09 

[2021-12-27 15:58:57]
报文接收：  01 03 08 00 00 00 00 00 00 00 00 95 d7 

[2021-12-27 15:59:03]
保存至路径：../Modbus-RTU-Master/record.txt
文件名称：record.txt
文件大小：60222
创建日期：2021-12-24 13:17:23
最后保存日期：2021-12-27 15:58:51


[2021-12-27 15:59:04]
报文发送:  01 03 00 00 00 04 44 09 

[2021-12-27 15:59:04]
报文接收：  01 

[2021-12-27 15:59:04]
报文接收：  03 08 00 00 00 00 00 00 00 00 95 d7 

[2021-12-27 15:59:05]
报文发送:  01 03 00 00 00 04 44 09 

[2021-12-27 15:59:05]
报文接收：  01 03 08 

[2021-12-27 15:59:05]
报文接收：  00 00 00 00 00 00 00 00 95 d7 

[2021-12-27 15:59:15]
保存至路径：../Modbus-RTU-Master/record.txt
文件名称：record.txt
文件大小：60930
创建日期：2021-12-24 13:17:23
最后保存日期：2021-12-27 15:59:03


[2021-12-27 15:59:16]
报文发送:  01 03 00 00 00 04 44 09 

[2021-12-27 15:59:16]
报文接收：  01 03 08 00 00 

[2021-12-27 15:59:16]
报文接收：  00 00 00 00 00 00 95 d7 

[2021-12-27 15:59:17]
报文发送:  01 03 00 00 00 04 44 09 

[2021-12-27 15:59:17]
报文接收：  01 03 08 00 00 00 00 

[2021-12-27 15:59:17]
报文接收：  00 00 00 00 95 d7 

[2021-12-27 15:59:19]
报文发送:  01 03 00 00 00 04 44 09 

[2021-12-27 15:59:20]
报文接收：  01 03 08 00 00 00 00 00 00 

[2021-12-27 15:59:20]
报文接收：  00 00 95 d7 

[2021-12-27 15:59:27]
保存至路径：../Modbus-RTU-Master/record.txt
文件名称：record.txt
文件大小：61495
创建日期：2021-12-24 13:17:23
最后保存日期：2021-12-27 15:59:15


[2021-12-27 15:59:27]
保存至路径：../Modbus-RTU-Master/record.txt
文件名称：record.txt
文件大小：62244
创建日期：2021-12-24 13:17:23
最后保存日期：2021-12-27 15:59:27


[2021-12-27 16:19:59]
保存至路径：../Modbus-RTU-Master/record.txt
文件名称：record.txt
文件大小：62441
创建日期：2021-12-24 13:17:23
最后保存日期：2021-12-27 15:59:27


[2021-12-27 16:20:09]
串口打开失败，请重新设置！

[2021-12-27 16:20:11]
串口打开成功！

[2021-12-27 16:20:11]
保存至路径：../Modbus-RTU-Master/record.txt
文件名称：record.txt
文件大小：62638
创建日期：2021-12-24 13:17:23
最后保存日期：2021-12-27 16:19:59


[2021-12-27 16:20:12]
串口关闭成功！

[2021-12-27 16:20:12]
串口打开成功！

[2021-12-27 16:20:23]
保存至路径：../Modbus-RTU-Master/record.txt
文件名称：record.txt
文件大小：62943
创建日期：2021-12-24 13:17:23
最后保存日期：2021-12-27 16:20:11


[2021-12-27 16:20:34]
报文发送:  01 03 00 00 00 04 44 09 

[2021-12-27 16:20:34]
报文接收：  01 83 01 80 f0 

[2021-12-27 16:20:35]
保存至路径：../Modbus-RTU-Master/record.txt
文件名称：record.txt
文件大小：63230
创建日期：2021-12-24 13:17:23
最后保存日期：2021-12-27 16:20:23


[2021-12-27 16:20:38]
报文发送:  01 03 00 00 00 04 44 09 

[2021-12-27 16:20:39]
报文接收：  01 83 01 80 f0 

[2021-12-27 16:20:47]
保存至路径：../Modbus-RTU-Master/record.txt
文件名称：record.txt
文件大小：63546
创建日期：2021-12-24 13:17:23
最后保存日期：2021-12-27 16:20:35


[2021-12-27 16:20:56]
报文发送:  01 03 00 00 00 04 44 09 

[2021-12-27 16:20:56]
报文接收：  01 03 08 00 

[2021-12-27 16:20:56]
报文接收：  00 00 00 00 00 00 00 95 d7 

[2021-12-27 16:20:59]
保存至路径：../Modbus-RTU-Master/record.txt
文件名称：record.txt
文件大小：63862
创建日期：2021-12-24 13:17:23
最后保存日期：2021-12-27 16:20:47


[2021-12-27 16:21:00]
报文发送:  01 03 00 00 00 04 44 09 

[2021-12-27 16:21:00]
报文接收：  01 03 08 00 00 00 

[2021-12-27 16:21:00]
报文接收：  00 00 00 00 00 95 d7 

[2021-12-27 16:21:11]
保存至路径：../Modbus-RTU-Master/record.txt
文件名称：record.txt
文件大小：64243
创建日期：2021-12-24 13:17:23
最后保存日期：2021-12-27 16:20:59


[2021-12-27 16:21:23]
保存至路径：../Modbus-RTU-Master/record.txt
文件名称：record.txt
文件大小：64624
创建日期：2021-12-24 13:17:23
最后保存日期：2021-12-27 16:21:11


[2021-12-27 16:21:35]
保存至路径：../Modbus-RTU-Master/record.txt
文件名称：record.txt
文件大小：64821
创建日期：2021-12-24 13:17:23
最后保存日期：2021-12-27 16:21:23


[2021-12-27 16:21:47]
保存至路径：../Modbus-RTU-Master/record.txt
文件名称：record.txt
文件大小：65018
创建日期：2021-12-24 13:17:23
最后保存日期：2021-12-27 16:21:35


[2021-12-27 16:21:59]
保存至路径：../Modbus-RTU-Master/record.txt
文件名称：record.txt
文件大小：65215
创建日期：2021-12-24 13:17:23
最后保存日期：2021-12-27 16:21:47


[2021-12-27 16:22:11]
保存至路径：../Modbus-RTU-Master/record.txt
文件名称：record.txt
文件大小：65412
创建日期：2021-12-24 13:17:23
最后保存日期：2021-12-27 16:21:59


[2021-12-27 16:22:23]
保存至路径：../Modbus-RTU-Master/record.txt
文件名称：record.txt
文件大小：65609
创建日期：2021-12-24 13:17:23
最后保存日期：2021-12-27 16:22:11


[2021-12-27 16:22:35]
保存至路径：../Modbus-RTU-Master/record.txt
文件名称：record.txt
文件大小：65806
创建日期：2021-12-24 13:17:23
最后保存日期：2021-12-27 16:22:23


[2021-12-27 16:22:47]
保存至路径：../Modbus-RTU-Master/record.txt
文件名称：record.txt
文件大小：66003
创建日期：2021-12-24 13:17:23
最后保存日期：2021-12-27 16:22:35


[2021-12-27 16:22:59]
保存至路径：../Modbus-RTU-Master/record.txt
文件名称：record.txt
文件大小：66200
创建日期：2021-12-24 13:17:23
最后保存日期：2021-12-27 16:22:47


[2021-12-27 16:23:11]
保存至路径：../Modbus-RTU-Master/record.txt
文件名称：record.txt
文件大小：66397
创建日期：2021-12-24 13:17:23
最后保存日期：2021-12-27 16:22:59


[2021-12-27 16:23:23]
保存至路径：../Modbus-RTU-Master/record.txt
文件名称：record.txt
文件大小：66594
创建日期：2021-12-24 13:17:23
最后保存日期：2021-12-27 16:23:11


[2021-12-27 16:23:35]
保存至路径：../Modbus-RTU-Master/record.txt
文件名称：record.txt
文件大小：66791
创建日期：2021-12-24 13:17:23
最后保存日期：2021-12-27 16:23:23


[2021-12-27 16:23:47]
保存至路径：../Modbus-RTU-Master/record.txt
文件名称：record.txt
文件大小：66988
创建日期：2021-12-24 13:17:23
最后保存日期：2021-12-27 16:23:35


[2021-12-27 16:23:59]
保存至路径：../Modbus-RTU-Master/record.txt
文件名称：record.txt
文件大小：67185
创建日期：2021-12-24 13:17:23
最后保存日期：2021-12-27 16:23:47


[2021-12-27 16:24:11]
保存至路径：../Modbus-RTU-Master/record.txt
文件名称：record.txt
文件大小：67382
创建日期：2021-12-24 13:17:23
最后保存日期：2021-12-27 16:23:59


[2021-12-27 16:24:23]
保存至路径：../Modbus-RTU-Master/record.txt
文件名称：record.txt
文件大小：67579
创建日期：2021-12-24 13:17:23
最后保存日期：2021-12-27 16:24:11


[2021-12-27 16:24:35]
保存至路径：../Modbus-RTU-Master/record.txt
文件名称：record.txt
文件大小：67776
创建日期：2021-12-24 13:17:23
最后保存日期：2021-12-27 16:24:23


[2021-12-27 16:24:47]
保存至路径：../Modbus-RTU-Master/record.txt
文件名称：record.txt
文件大小：67973
创建日期：2021-12-24 13:17:23
最后保存日期：2021-12-27 16:24:35


[2021-12-27 16:24:59]
保存至路径：../Modbus-RTU-Master/record.txt
文件名称：record.txt
文件大小：68170
创建日期：2021-12-24 13:17:23
最后保存日期：2021-12-27 16:24:47


[2021-12-27 16:25:11]
保存至路径：../Modbus-RTU-Master/record.txt
文件名称：record.txt
文件大小：68367
创建日期：2021-12-24 13:17:23
最后保存日期：2021-12-27 16:24:59


[2021-12-27 16:25:23]
保存至路径：../Modbus-RTU-Master/record.txt
文件名称：record.txt
文件大小：68564
创建日期：2021-12-24 13:17:23
最后保存日期：2021-12-27 16:25:11


[2021-12-27 16:25:35]
保存至路径：../Modbus-RTU-Master/record.txt
文件名称：record.txt
文件大小：68761
创建日期：2021-12-24 13:17:23
最后保存日期：2021-12-27 16:25:23


[2021-12-27 16:25:47]
保存至路径：../Modbus-RTU-Master/record.txt
文件名称：record.txt
文件大小：68958
创建日期：2021-12-24 13:17:23
最后保存日期：2021-12-27 16:25:35


[2021-12-27 16:25:59]
保存至路径：../Modbus-RTU-Master/record.txt
文件名称：record.txt
文件大小：69155
创建日期：2021-12-24 13:17:23
最后保存日期：2021-12-27 16:25:47


[2021-12-27 16:26:11]
保存至路径：../Modbus-RTU-Master/record.txt
文件名称：record.txt
文件大小：69352
创建日期：2021-12-24 13:17:23
最后保存日期：2021-12-27 16:25:59


[2021-12-27 16:26:23]
保存至路径：../Modbus-RTU-Master/record.txt
文件名称：record.txt
文件大小：69549
创建日期：2021-12-24 13:17:23
最后保存日期：2021-12-27 16:26:11


[2021-12-27 16:26:35]
保存至路径：../Modbus-RTU-Master/record.txt
文件名称：record.txt
文件大小：69746
创建日期：2021-12-24 13:17:23
最后保存日期：2021-12-27 16:26:23


[2021-12-27 16:26:47]
保存至路径：../Modbus-RTU-Master/record.txt
文件名称：record.txt
文件大小：69943
创建日期：2021-12-24 13:17:23
最后保存日期：2021-12-27 16:26:35


[2021-12-27 16:26:59]
保存至路径：../Modbus-RTU-Master/record.txt
文件名称：record.txt
文件大小：70140
创建日期：2021-12-24 13:17:23
最后保存日期：2021-12-27 16:26:47


[2021-12-27 16:27:11]
保存至路径：../Modbus-RTU-Master/record.txt
文件名称：record.txt
文件大小：70337
创建日期：2021-12-24 13:17:23
最后保存日期：2021-12-27 16:26:59


[2021-12-27 16:27:23]
保存至路径：../Modbus-RTU-Master/record.txt
文件名称：record.txt
文件大小：70534
创建日期：2021-12-24 13:17:23
最后保存日期：2021-12-27 16:27:11


[2021-12-27 16:27:35]
保存至路径：../Modbus-RTU-Master/record.txt
文件名称：record.txt
文件大小：70731
创建日期：2021-12-24 13:17:23
最后保存日期：2021-12-27 16:27:23


[2021-12-27 16:27:47]
保存至路径：../Modbus-RTU-Master/record.txt
文件名称：record.txt
文件大小：70928
创建日期：2021-12-24 13:17:23
最后保存日期：2021-12-27 16:27:35


[2021-12-27 16:27:59]
保存至路径：../Modbus-RTU-Master/record.txt
文件名称：record.txt
文件大小：71125
创建日期：2021-12-24 13:17:23
最后保存日期：2021-12-27 16:27:47


[2021-12-27 16:28:11]
保存至路径：../Modbus-RTU-Master/record.txt
文件名称：record.txt
文件大小：71322
创建日期：2021-12-24 13:17:23
最后保存日期：2021-12-27 16:27:59


[2021-12-27 16:28:23]
保存至路径：../Modbus-RTU-Master/record.txt
文件名称：record.txt
文件大小：71519
创建日期：2021-12-24 13:17:23
最后保存日期：2021-12-27 16:28:11


[2021-12-27 16:28:35]
保存至路径：../Modbus-RTU-Master/record.txt
文件名称：record.txt
文件大小：71716
创建日期：2021-12-24 13:17:23
最后保存日期：2021-12-27 16:28:23


[2021-12-27 16:28:47]
保存至路径：../Modbus-RTU-Master/record.txt
文件名称：record.txt
文件大小：71913
创建日期：2021-12-24 13:17:23
最后保存日期：2021-12-27 16:28:35


[2021-12-27 16:28:59]
保存至路径：../Modbus-RTU-Master/record.txt
文件名称：record.txt
文件大小：72110
创建日期：2021-12-24 13:17:23
最后保存日期：2021-12-27 16:28:47


[2021-12-27 16:29:11]
保存至路径：../Modbus-RTU-Master/record.txt
文件名称：record.txt
文件大小：72307
创建日期：2021-12-24 13:17:23
最后保存日期：2021-12-27 16:28:59


[2021-12-27 16:29:23]
保存至路径：../Modbus-RTU-Master/record.txt
文件名称：record.txt
文件大小：72504
创建日期：2021-12-24 13:17:23
最后保存日期：2021-12-27 16:29:11


[2021-12-27 16:29:35]
保存至路径：../Modbus-RTU-Master/record.txt
文件名称：record.txt
文件大小：72701
创建日期：2021-12-24 13:17:23
最后保存日期：2021-12-27 16:29:23


[2021-12-27 16:29:47]
保存至路径：../Modbus-RTU-Master/record.txt
文件名称：record.txt
文件大小：72898
创建日期：2021-12-24 13:17:23
最后保存日期：2021-12-27 16:29:35


[2021-12-27 16:29:59]
保存至路径：../Modbus-RTU-Master/record.txt
文件名称：record.txt
文件大小：73095
创建日期：2021-12-24 13:17:23
最后保存日期：2021-12-27 16:29:47


[2021-12-27 16:30:11]
保存至路径：../Modbus-RTU-Master/record.txt
文件名称：record.txt
文件大小：73292
创建日期：2021-12-24 13:17:23
最后保存日期：2021-12-27 16:29:59


[2021-12-27 16:30:23]
保存至路径：../Modbus-RTU-Master/record.txt
文件名称：record.txt
文件大小：73489
创建日期：2021-12-24 13:17:23
最后保存日期：2021-12-27 16:30:11


[2021-12-27 16:30:35]
保存至路径：../Modbus-RTU-Master/record.txt
文件名称：record.txt
文件大小：73686
创建日期：2021-12-24 13:17:23
最后保存日期：2021-12-27 16:30:23


[2021-12-27 16:30:47]
保存至路径：../Modbus-RTU-Master/record.txt
文件名称：record.txt
文件大小：73883
创建日期：2021-12-24 13:17:23
最后保存日期：2021-12-27 16:30:35


[2021-12-27 16:30:59]
保存至路径：../Modbus-RTU-Master/record.txt
文件名称：record.txt
文件大小：74080
创建日期：2021-12-24 13:17:23
最后保存日期：2021-12-27 16:30:47


[2021-12-27 16:31:11]
保存至路径：../Modbus-RTU-Master/record.txt
文件名称：record.txt
文件大小：74277
创建日期：2021-12-24 13:17:23
最后保存日期：2021-12-27 16:30:59


[2021-12-27 16:31:23]
保存至路径：../Modbus-RTU-Master/record.txt
文件名称：record.txt
文件大小：74474
创建日期：2021-12-24 13:17:23
最后保存日期：2021-12-27 16:31:11


[2021-12-27 16:31:35]
保存至路径：../Modbus-RTU-Master/record.txt
文件名称：record.txt
文件大小：74671
创建日期：2021-12-24 13:17:23
最后保存日期：2021-12-27 16:31:23


[2021-12-27 16:31:47]
保存至路径：../Modbus-RTU-Master/record.txt
文件名称：record.txt
文件大小：74868
创建日期：2021-12-24 13:17:23
最后保存日期：2021-12-27 16:31:35


[2021-12-27 16:31:59]
保存至路径：../Modbus-RTU-Master/record.txt
文件名称：record.txt
文件大小：75065
创建日期：2021-12-24 13:17:23
最后保存日期：2021-12-27 16:31:47


[2021-12-27 16:32:11]
保存至路径：../Modbus-RTU-Master/record.txt
文件名称：record.txt
文件大小：75262
创建日期：2021-12-24 13:17:23
最后保存日期：2021-12-27 16:31:59


[2021-12-27 16:32:23]
保存至路径：../Modbus-RTU-Master/record.txt
文件名称：record.txt
文件大小：75459
创建日期：2021-12-24 13:17:23
最后保存日期：2021-12-27 16:32:11


[2021-12-27 16:32:35]
保存至路径：../Modbus-RTU-Master/record.txt
文件名称：record.txt
文件大小：75656
创建日期：2021-12-24 13:17:23
最后保存日期：2021-12-27 16:32:23


[2021-12-27 16:32:47]
保存至路径：../Modbus-RTU-Master/record.txt
文件名称：record.txt
文件大小：75853
创建日期：2021-12-24 13:17:23
最后保存日期：2021-12-27 16:32:35


[2021-12-27 16:32:59]
保存至路径：../Modbus-RTU-Master/record.txt
文件名称：record.txt
文件大小：76050
创建日期：2021-12-24 13:17:23
最后保存日期：2021-12-27 16:32:47


[2021-12-27 16:33:11]
保存至路径：../Modbus-RTU-Master/record.txt
文件名称：record.txt
文件大小：76247
创建日期：2021-12-24 13:17:23
最后保存日期：2021-12-27 16:32:59


[2021-12-27 16:33:23]
保存至路径：../Modbus-RTU-Master/record.txt
文件名称：record.txt
文件大小：76444
创建日期：2021-12-24 13:17:23
最后保存日期：2021-12-27 16:33:11


[2021-12-27 16:33:35]
保存至路径：../Modbus-RTU-Master/record.txt
文件名称：record.txt
文件大小：76641
创建日期：2021-12-24 13:17:23
最后保存日期：2021-12-27 16:33:23


[2021-12-27 16:33:47]
保存至路径：../Modbus-RTU-Master/record.txt
文件名称：record.txt
文件大小：76838
创建日期：2021-12-24 13:17:23
最后保存日期：2021-12-27 16:33:35


[2021-12-27 16:33:59]
保存至路径：../Modbus-RTU-Master/record.txt
文件名称：record.txt
文件大小：77035
创建日期：2021-12-24 13:17:23
最后保存日期：2021-12-27 16:33:47


[2021-12-27 16:34:11]
保存至路径：../Modbus-RTU-Master/record.txt
文件名称：record.txt
文件大小：77232
创建日期：2021-12-24 13:17:23
最后保存日期：2021-12-27 16:33:59


[2021-12-27 16:34:18]
报文发送:  01 03 00 00 00 04 44 09 

[2021-12-27 16:34:23]
保存至路径：../Modbus-RTU-Master/record.txt
文件名称：record.txt
文件大小：77429
创建日期：2021-12-24 13:17:23
最后保存日期：2021-12-27 16:34:11


[2021-12-27 16:34:35]
保存至路径：../Modbus-RTU-Master/record.txt
文件名称：record.txt
文件大小：77689
创建日期：2021-12-24 13:17:23
最后保存日期：2021-12-27 16:34:23


[2021-12-27 16:34:47]
保存至路径：../Modbus-RTU-Master/record.txt
文件名称：record.txt
文件大小：77886
创建日期：2021-12-24 13:17:23
最后保存日期：2021-12-27 16:34:35


[2021-12-27 16:34:59]
保存至路径：../Modbus-RTU-Master/record.txt
文件名称：record.txt
文件大小：78083
创建日期：2021-12-24 13:17:23
最后保存日期：2021-12-27 16:34:47


[2021-12-27 16:35:11]
保存至路径：../Modbus-RTU-Master/record.txt
文件名称：record.txt
文件大小：78280
创建日期：2021-12-24 13:17:23
最后保存日期：2021-12-27 16:34:59


[2021-12-27 16:35:23]
保存至路径：../Modbus-RTU-Master/record.txt
文件名称：record.txt
文件大小：78477
创建日期：2021-12-24 13:17:23
最后保存日期：2021-12-27 16:35:11


[2021-12-27 16:35:26]
串口关闭成功！

[2021-12-27 16:35:35]
保存至路径：../Modbus-RTU-Master/record.txt
文件名称：record.txt
文件大小：78674
创建日期：2021-12-24 13:17:23
最后保存日期：2021-12-27 16:35:23


[2021-12-27 16:35:47]
保存至路径：../Modbus-RTU-Master/record.txt
文件名称：record.txt
文件大小：78916
创建日期：2021-12-24 13:17:23
最后保存日期：2021-12-27 16:35:35


[2021-12-27 16:35:58]
保存至路径：../Modbus-RTU-Master/record.txt
文件名称：record.txt
文件大小：79113
创建日期：2021-12-24 13:17:23
最后保存日期：2021-12-27 16:35:47


[2021-12-27 17:01:56]
保存至路径：../Modbus-RTU-Master/record.txt
文件名称：record.txt
文件大小：79310
创建日期：2021-12-24 13:17:23
最后保存日期：2021-12-27 16:35:58


[2021-12-27 17:02:08]
保存至路径：../Modbus-RTU-Master/record.txt
文件名称：record.txt
文件大小：79507
创建日期：2021-12-24 13:17:23
最后保存日期：2021-12-27 17:01:56


[2021-12-27 17:02:20]
保存至路径：../Modbus-RTU-Master/record.txt
文件名称：record.txt
文件大小：79704
创建日期：2021-12-24 13:17:23
最后保存日期：2021-12-27 17:02:08


[2021-12-27 17:02:22]
串口打开成功！

[2021-12-27 17:02:31]
报文发送:  01 03 00 00 00 03 05 cb 

[2021-12-27 17:02:32]
保存至路径：../Modbus-RTU-Master/record.txt
文件名称：record.txt
文件大小：79901
创建日期：2021-12-24 13:17:23
最后保存日期：2021-12-27 17:02:20


[2021-12-27 17:02:44]
保存至路径：../Modbus-RTU-Master/record.txt
文件名称：record.txt
文件大小：80206
创建日期：2021-12-24 13:17:23
最后保存日期：2021-12-27 17:02:32


[2021-12-27 17:02:56]
保存至路径：../Modbus-RTU-Master/record.txt
文件名称：record.txt
文件大小：80403
创建日期：2021-12-24 13:17:23
最后保存日期：2021-12-27 17:02:44


[2021-12-27 17:03:00]
报文发送:  01 03 00 00 00 03 05 cb 

[2021-12-27 17:03:08]
保存至路径：../Modbus-RTU-Master/record.txt
文件名称：record.txt
文件大小：80600
创建日期：2021-12-24 13:17:23
最后保存日期：2021-12-27 17:02:56


[2021-12-27 17:03:13]
串口关闭成功！

[2021-12-27 17:03:20]
保存至路径：../Modbus-RTU-Master/record.txt
文件名称：record.txt
文件大小：80860
创建日期：2021-12-24 13:17:23
最后保存日期：2021-12-27 17:03:08


[2021-12-27 17:03:32]
保存至路径：../Modbus-RTU-Master/record.txt
文件名称：record.txt
文件大小：81102
创建日期：2021-12-24 13:17:23
最后保存日期：2021-12-27 17:03:20


[2021-12-27 17:03:44]
保存至路径：../Modbus-RTU-Master/record.txt
文件名称：record.txt
文件大小：81299
创建日期：2021-12-24 13:17:23
最后保存日期：2021-12-27 17:03:32


[2021-12-27 17:03:56]
保存至路径：../Modbus-RTU-Master/record.txt
文件名称：record.txt
文件大小：81496
创建日期：2021-12-24 13:17:23
最后保存日期：2021-12-27 17:03:44


[2021-12-27 17:04:08]
保存至路径：../Modbus-RTU-Master/record.txt
文件名称：record.txt
文件大小：81693
创建日期：2021-12-24 13:17:23
最后保存日期：2021-12-27 17:03:56


[2021-12-27 17:04:20]
保存至路径：../Modbus-RTU-Master/record.txt
文件名称：record.txt
文件大小：81890
创建日期：2021-12-24 13:17:23
最后保存日期：2021-12-27 17:04:08


[2021-12-27 17:04:32]
保存至路径：../Modbus-RTU-Master/record.txt
文件名称：record.txt
文件大小：82087
创建日期：2021-12-24 13:17:23
最后保存日期：2021-12-27 17:04:20


[2021-12-27 17:04:44]
保存至路径：../Modbus-RTU-Master/record.txt
文件名称：record.txt
文件大小：82284
创建日期：2021-12-24 13:17:23
最后保存日期：2021-12-27 17:04:32


[2021-12-27 17:04:56]
保存至路径：../Modbus-RTU-Master/record.txt
文件名称：record.txt
文件大小：82481
创建日期：2021-12-24 13:17:23
最后保存日期：2021-12-27 17:04:44


[2021-12-27 17:05:08]
保存至路径：../Modbus-RTU-Master/record.txt
文件名称：record.txt
文件大小：82678
创建日期：2021-12-24 13:17:23
最后保存日期：2021-12-27 17:04:56


[2021-12-27 17:05:20]
保存至路径：../Modbus-RTU-Master/record.txt
文件名称：record.txt
文件大小：82875
创建日期：2021-12-24 13:17:23
最后保存日期：2021-12-27 17:05:08


[2021-12-27 17:05:32]
保存至路径：../Modbus-RTU-Master/record.txt
文件名称：record.txt
文件大小：83072
创建日期：2021-12-24 13:17:23
最后保存日期：2021-12-27 17:05:20


[2021-12-27 17:05:44]
保存至路径：../Modbus-RTU-Master/record.txt
文件名称：record.txt
文件大小：83269
创建日期：2021-12-24 13:17:23
最后保存日期：2021-12-27 17:05:32


[2021-12-27 17:05:56]
保存至路径：../Modbus-RTU-Master/record.txt
文件名称：record.txt
文件大小：83466
创建日期：2021-12-24 13:17:23
最后保存日期：2021-12-27 17:05:44


[2021-12-27 17:06:08]
保存至路径：../Modbus-RTU-Master/record.txt
文件名称：record.txt
文件大小：83663
创建日期：2021-12-24 13:17:23
最后保存日期：2021-12-27 17:05:56


[2021-12-27 17:06:20]
保存至路径：../Modbus-RTU-Master/record.txt
文件名称：record.txt
文件大小：83860
创建日期：2021-12-24 13:17:23
最后保存日期：2021-12-27 17:06:08


[2021-12-27 17:06:32]
保存至路径：../Modbus-RTU-Master/record.txt
文件名称：record.txt
文件大小：84057
创建日期：2021-12-24 13:17:23
最后保存日期：2021-12-27 17:06:20


[2021-12-27 17:06:44]
保存至路径：../Modbus-RTU-Master/record.txt
文件名称：record.txt
文件大小：84254
创建日期：2021-12-24 13:17:23
最后保存日期：2021-12-27 17:06:32


[2021-12-27 17:06:56]
保存至路径：../Modbus-RTU-Master/record.txt
文件名称：record.txt
文件大小：84451
创建日期：2021-12-24 13:17:23
最后保存日期：2021-12-27 17:06:44


[2021-12-27 17:07:08]
保存至路径：../Modbus-RTU-Master/record.txt
文件名称：record.txt
文件大小：84648
创建日期：2021-12-24 13:17:23
最后保存日期：2021-12-27 17:06:56


[2021-12-27 17:07:20]
保存至路径：../Modbus-RTU-Master/record.txt
文件名称：record.txt
文件大小：84845
创建日期：2021-12-24 13:17:23
最后保存日期：2021-12-27 17:07:08


[2021-12-27 17:07:32]
保存至路径：../Modbus-RTU-Master/record.txt
文件名称：record.txt
文件大小：85042
创建日期：2021-12-24 13:17:23
最后保存日期：2021-12-27 17:07:20


[2021-12-27 17:07:44]
保存至路径：../Modbus-RTU-Master/record.txt
文件名称：record.txt
文件大小：85239
创建日期：2021-12-24 13:17:23
最后保存日期：2021-12-27 17:07:32


[2021-12-27 17:07:56]
保存至路径：../Modbus-RTU-Master/record.txt
文件名称：record.txt
文件大小：85436
创建日期：2021-12-24 13:17:23
最后保存日期：2021-12-27 17:07:44


[2021-12-27 17:08:08]
保存至路径：../Modbus-RTU-Master/record.txt
文件名称：record.txt
文件大小：85633
创建日期：2021-12-24 13:17:23
最后保存日期：2021-12-27 17:07:56


[2021-12-27 17:08:20]
保存至路径：../Modbus-RTU-Master/record.txt
文件名称：record.txt
文件大小：85830
创建日期：2021-12-24 13:17:23
最后保存日期：2021-12-27 17:08:08


[2021-12-27 17:08:32]
保存至路径：../Modbus-RTU-Master/record.txt
文件名称：record.txt
文件大小：86027
创建日期：2021-12-24 13:17:23
最后保存日期：2021-12-27 17:08:20


[2021-12-27 17:08:44]
保存至路径：../Modbus-RTU-Master/record.txt
文件名称：record.txt
文件大小：86224
创建日期：2021-12-24 13:17:23
最后保存日期：2021-12-27 17:08:32


[2021-12-27 17:08:56]
保存至路径：../Modbus-RTU-Master/record.txt
文件名称：record.txt
文件大小：86421
创建日期：2021-12-24 13:17:23
最后保存日期：2021-12-27 17:08:44


[2021-12-27 17:09:08]
保存至路径：../Modbus-RTU-Master/record.txt
文件名称：record.txt
文件大小：86618
创建日期：2021-12-24 13:17:23
最后保存日期：2021-12-27 17:08:56


[2021-12-27 17:09:20]
保存至路径：../Modbus-RTU-Master/record.txt
文件名称：record.txt
文件大小：86815
创建日期：2021-12-24 13:17:23
最后保存日期：2021-12-27 17:09:08


[2021-12-27 17:09:32]
保存至路径：../Modbus-RTU-Master/record.txt
文件名称：record.txt
文件大小：87012
创建日期：2021-12-24 13:17:23
最后保存日期：2021-12-27 17:09:20


[2021-12-27 17:09:44]
保存至路径：../Modbus-RTU-Master/record.txt
文件名称：record.txt
文件大小：87209
创建日期：2021-12-24 13:17:23
最后保存日期：2021-12-27 17:09:32


[2021-12-27 17:09:56]
保存至路径：../Modbus-RTU-Master/record.txt
文件名称：record.txt
文件大小：87406
创建日期：2021-12-24 13:17:23
最后保存日期：2021-12-27 17:09:44


[2021-12-27 17:10:08]
保存至路径：../Modbus-RTU-Master/record.txt
文件名称：record.txt
文件大小：87603
创建日期：2021-12-24 13:17:23
最后保存日期：2021-12-27 17:09:56


[2021-12-27 17:10:20]
保存至路径：../Modbus-RTU-Master/record.txt
文件名称：record.txt
文件大小：87800
创建日期：2021-12-24 13:17:23
最后保存日期：2021-12-27 17:10:08


[2021-12-27 17:10:32]
保存至路径：../Modbus-RTU-Master/record.txt
文件名称：record.txt
文件大小：87997
创建日期：2021-12-24 13:17:23
最后保存日期：2021-12-27 17:10:20


[2021-12-27 17:10:44]
保存至路径：../Modbus-RTU-Master/record.txt
文件名称：record.txt
文件大小：88194
创建日期：2021-12-24 13:17:23
最后保存日期：2021-12-27 17:10:32


[2021-12-27 17:10:56]
保存至路径：../Modbus-RTU-Master/record.txt
文件名称：record.txt
文件大小：88391
创建日期：2021-12-24 13:17:23
最后保存日期：2021-12-27 17:10:44


[2021-12-27 17:11:08]
保存至路径：../Modbus-RTU-Master/record.txt
文件名称：record.txt
文件大小：88588
创建日期：2021-12-24 13:17:23
最后保存日期：2021-12-27 17:10:56


[2021-12-27 17:11:20]
保存至路径：../Modbus-RTU-Master/record.txt
文件名称：record.txt
文件大小：88785
创建日期：2021-12-24 13:17:23
最后保存日期：2021-12-27 17:11:08


[2021-12-27 17:11:32]
保存至路径：../Modbus-RTU-Master/record.txt
文件名称：record.txt
文件大小：88982
创建日期：2021-12-24 13:17:23
最后保存日期：2021-12-27 17:11:20


[2021-12-27 17:11:44]
保存至路径：../Modbus-RTU-Master/record.txt
文件名称：record.txt
文件大小：89179
创建日期：2021-12-24 13:17:23
最后保存日期：2021-12-27 17:11:32


[2021-12-27 17:11:56]
保存至路径：../Modbus-RTU-Master/record.txt
文件名称：record.txt
文件大小：89376
创建日期：2021-12-24 13:17:23
最后保存日期：2021-12-27 17:11:44


[2021-12-27 17:12:08]
保存至路径：../Modbus-RTU-Master/record.txt
文件名称：record.txt
文件大小：89573
创建日期：2021-12-24 13:17:23
最后保存日期：2021-12-27 17:11:56


[2021-12-27 17:12:20]
保存至路径：../Modbus-RTU-Master/record.txt
文件名称：record.txt
文件大小：89770
创建日期：2021-12-24 13:17:23
最后保存日期：2021-12-27 17:12:08


[2021-12-27 17:12:32]
保存至路径：../Modbus-RTU-Master/record.txt
文件名称：record.txt
文件大小：89967
创建日期：2021-12-24 13:17:23
最后保存日期：2021-12-27 17:12:20


[2021-12-27 17:12:44]
保存至路径：../Modbus-RTU-Master/record.txt
文件名称：record.txt
文件大小：90164
创建日期：2021-12-24 13:17:23
最后保存日期：2021-12-27 17:12:32


[2021-12-27 17:12:56]
保存至路径：../Modbus-RTU-Master/record.txt
文件名称：record.txt
文件大小：90361
创建日期：2021-12-24 13:17:23
最后保存日期：2021-12-27 17:12:44


[2021-12-27 17:13:08]
保存至路径：../Modbus-RTU-Master/record.txt
文件名称：record.txt
文件大小：90558
创建日期：2021-12-24 13:17:23
最后保存日期：2021-12-27 17:12:56


[2021-12-27 17:13:20]
保存至路径：../Modbus-RTU-Master/record.txt
文件名称：record.txt
文件大小：90755
创建日期：2021-12-24 13:17:23
最后保存日期：2021-12-27 17:13:08


[2021-12-27 17:13:32]
保存至路径：../Modbus-RTU-Master/record.txt
文件名称：record.txt
文件大小：90952
创建日期：2021-12-24 13:17:23
最后保存日期：2021-12-27 17:13:20


[2021-12-27 17:13:44]
保存至路径：../Modbus-RTU-Master/record.txt
文件名称：record.txt
文件大小：91149
创建日期：2021-12-24 13:17:23
最后保存日期：2021-12-27 17:13:32


[2021-12-27 17:13:56]
保存至路径：../Modbus-RTU-Master/record.txt
文件名称：record.txt
文件大小：91346
创建日期：2021-12-24 13:17:23
最后保存日期：2021-12-27 17:13:44


[2021-12-27 17:14:08]
保存至路径：../Modbus-RTU-Master/record.txt
文件名称：record.txt
文件大小：91543
创建日期：2021-12-24 13:17:23
最后保存日期：2021-12-27 17:13:56


[2021-12-27 17:14:20]
保存至路径：../Modbus-RTU-Master/record.txt
文件名称：record.txt
文件大小：91740
创建日期：2021-12-24 13:17:23
最后保存日期：2021-12-27 17:14:08


[2021-12-27 17:14:32]
保存至路径：../Modbus-RTU-Master/record.txt
文件名称：record.txt
文件大小：91937
创建日期：2021-12-24 13:17:23
最后保存日期：2021-12-27 17:14:20


[2021-12-27 17:14:44]
保存至路径：../Modbus-RTU-Master/record.txt
文件名称：record.txt
文件大小：92134
创建日期：2021-12-24 13:17:23
最后保存日期：2021-12-27 17:14:32


[2021-12-27 17:14:56]
保存至路径：../Modbus-RTU-Master/record.txt
文件名称：record.txt
文件大小：92331
创建日期：2021-12-24 13:17:23
最后保存日期：2021-12-27 17:14:44


[2021-12-27 17:15:08]
保存至路径：../Modbus-RTU-Master/record.txt
文件名称：record.txt
文件大小：92528
创建日期：2021-12-24 13:17:23
最后保存日期：2021-12-27 17:14:56


[2021-12-27 17:15:20]
保存至路径：../Modbus-RTU-Master/record.txt
文件名称：record.txt
文件大小：92725
创建日期：2021-12-24 13:17:23
最后保存日期：2021-12-27 17:15:08


[2021-12-27 17:15:32]
保存至路径：../Modbus-RTU-Master/record.txt
文件名称：record.txt
文件大小：92922
创建日期：2021-12-24 13:17:23
最后保存日期：2021-12-27 17:15:20


[2021-12-27 17:15:44]
保存至路径：../Modbus-RTU-Master/record.txt
文件名称：record.txt
文件大小：93119
创建日期：2021-12-24 13:17:23
最后保存日期：2021-12-27 17:15:32


[2021-12-27 17:15:56]
保存至路径：../Modbus-RTU-Master/record.txt
文件名称：record.txt
文件大小：93316
创建日期：2021-12-24 13:17:23
最后保存日期：2021-12-27 17:15:44


[2021-12-27 17:16:08]
保存至路径：../Modbus-RTU-Master/record.txt
文件名称：record.txt
文件大小：93513
创建日期：2021-12-24 13:17:23
最后保存日期：2021-12-27 17:15:56


[2021-12-27 17:16:20]
保存至路径：../Modbus-RTU-Master/record.txt
文件名称：record.txt
文件大小：93710
创建日期：2021-12-24 13:17:23
最后保存日期：2021-12-27 17:16:08


[2021-12-27 17:16:32]
保存至路径：../Modbus-RTU-Master/record.txt
文件名称：record.txt
文件大小：93907
创建日期：2021-12-24 13:17:23
最后保存日期：2021-12-27 17:16:20


[2021-12-27 17:16:44]
保存至路径：../Modbus-RTU-Master/record.txt
文件名称：record.txt
文件大小：94104
创建日期：2021-12-24 13:17:23
最后保存日期：2021-12-27 17:16:32


[2021-12-27 17:16:56]
保存至路径：../Modbus-RTU-Master/record.txt
文件名称：record.txt
文件大小：94301
创建日期：2021-12-24 13:17:23
最后保存日期：2021-12-27 17:16:44


[2021-12-27 17:17:08]
保存至路径：../Modbus-RTU-Master/record.txt
文件名称：record.txt
文件大小：94498
创建日期：2021-12-24 13:17:23
最后保存日期：2021-12-27 17:16:56


[2021-12-27 17:17:20]
保存至路径：../Modbus-RTU-Master/record.txt
文件名称：record.txt
文件大小：94695
创建日期：2021-12-24 13:17:23
最后保存日期：2021-12-27 17:17:08


[2021-12-27 17:17:32]
保存至路径：../Modbus-RTU-Master/record.txt
文件名称：record.txt
文件大小：94892
创建日期：2021-12-24 13:17:23
最后保存日期：2021-12-27 17:17:20


[2021-12-27 17:17:44]
保存至路径：../Modbus-RTU-Master/record.txt
文件名称：record.txt
文件大小：95089
创建日期：2021-12-24 13:17:23
最后保存日期：2021-12-27 17:17:32


[2021-12-27 17:17:56]
保存至路径：../Modbus-RTU-Master/record.txt
文件名称：record.txt
文件大小：95286
创建日期：2021-12-24 13:17:23
最后保存日期：2021-12-27 17:17:44


[2021-12-27 17:18:08]
保存至路径：../Modbus-RTU-Master/record.txt
文件名称：record.txt
文件大小：95483
创建日期：2021-12-24 13:17:23
最后保存日期：2021-12-27 17:17:56


[2021-12-27 17:18:20]
保存至路径：../Modbus-RTU-Master/record.txt
文件名称：record.txt
文件大小：95680
创建日期：2021-12-24 13:17:23
最后保存日期：2021-12-27 17:18:08


[2021-12-27 17:18:32]
保存至路径：../Modbus-RTU-Master/record.txt
文件名称：record.txt
文件大小：95877
创建日期：2021-12-24 13:17:23
最后保存日期：2021-12-27 17:18:20


[2021-12-27 17:18:44]
保存至路径：../Modbus-RTU-Master/record.txt
文件名称：record.txt
文件大小：96074
创建日期：2021-12-24 13:17:23
最后保存日期：2021-12-27 17:18:32


[2021-12-27 17:18:56]
保存至路径：../Modbus-RTU-Master/record.txt
文件名称：record.txt
文件大小：96271
创建日期：2021-12-24 13:17:23
最后保存日期：2021-12-27 17:18:44


[2021-12-27 17:19:08]
保存至路径：../Modbus-RTU-Master/record.txt
文件名称：record.txt
文件大小：96468
创建日期：2021-12-24 13:17:23
最后保存日期：2021-12-27 17:18:56


[2021-12-27 17:19:20]
保存至路径：../Modbus-RTU-Master/record.txt
文件名称：record.txt
文件大小：96665
创建日期：2021-12-24 13:17:23
最后保存日期：2021-12-27 17:19:08


[2021-12-27 17:19:32]
保存至路径：../Modbus-RTU-Master/record.txt
文件名称：record.txt
文件大小：96862
创建日期：2021-12-24 13:17:23
最后保存日期：2021-12-27 17:19:20


[2021-12-27 17:19:44]
保存至路径：../Modbus-RTU-Master/record.txt
文件名称：record.txt
文件大小：97059
创建日期：2021-12-24 13:17:23
最后保存日期：2021-12-27 17:19:32


[2021-12-27 17:19:56]
保存至路径：../Modbus-RTU-Master/record.txt
文件名称：record.txt
文件大小：97256
创建日期：2021-12-24 13:17:23
最后保存日期：2021-12-27 17:19:44


[2021-12-27 17:20:08]
保存至路径：../Modbus-RTU-Master/record.txt
文件名称：record.txt
文件大小：97453
创建日期：2021-12-24 13:17:23
最后保存日期：2021-12-27 17:19:56


[2021-12-27 17:20:20]
保存至路径：../Modbus-RTU-Master/record.txt
文件名称：record.txt
文件大小：97650
创建日期：2021-12-24 13:17:23
最后保存日期：2021-12-27 17:20:08


[2021-12-27 17:20:32]
保存至路径：../Modbus-RTU-Master/record.txt
文件名称：record.txt
文件大小：97847
创建日期：2021-12-24 13:17:23
最后保存日期：2021-12-27 17:20:20


[2021-12-27 17:20:44]
保存至路径：../Modbus-RTU-Master/record.txt
文件名称：record.txt
文件大小：98044
创建日期：2021-12-24 13:17:23
最后保存日期：2021-12-27 17:20:32


[2021-12-27 17:20:56]
保存至路径：../Modbus-RTU-Master/record.txt
文件名称：record.txt
文件大小：98241
创建日期：2021-12-24 13:17:23
最后保存日期：2021-12-27 17:20:44


[2021-12-27 17:21:23]
串口打开成功！

[2021-12-27 17:21:25]
保存至路径：../Modbus-RTU-Master/record.txt
文件名称：record.txt
文件大小：98438
创建日期：2021-12-24 13:17:23
最后保存日期：2021-12-27 17:20:56


[2021-12-27 17:21:32]
报文发送： 01 01 00 00 00 03 7c 0b 

[2021-12-27 17:21:37]
保存至路径：../Modbus-RTU-Master/record.txt
文件名称：record.txt
文件大小：98680
创建日期：2021-12-24 13:17:23
最后保存日期：2021-12-27 17:21:25


[2021-12-27 17:21:49]
保存至路径：../Modbus-RTU-Master/record.txt
文件名称：record.txt
文件大小：98941
创建日期：2021-12-24 13:17:23
最后保存日期：2021-12-27 17:21:37


[2021-12-27 17:22:01]
保存至路径：../Modbus-RTU-Master/record.txt
文件名称：record.txt
文件大小：99138
创建日期：2021-12-24 13:17:23
最后保存日期：2021-12-27 17:21:49


[2021-12-27 17:22:13]
保存至路径：../Modbus-RTU-Master/record.txt
文件名称：record.txt
文件大小：99335
创建日期：2021-12-24 13:17:23
最后保存日期：2021-12-27 17:22:01


[2021-12-27 17:22:25]
保存至路径：../Modbus-RTU-Master/record.txt
文件名称：record.txt
文件大小：99532
创建日期：2021-12-24 13:17:23
最后保存日期：2021-12-27 17:22:13


[2021-12-27 17:22:37]
保存至路径：../Modbus-RTU-Master/record.txt
文件名称：record.txt
文件大小：99729
创建日期：2021-12-24 13:17:23
最后保存日期：2021-12-27 17:22:25


[2021-12-27 17:22:38]
串口关闭成功！

[2021-12-27 17:22:49]
保存至路径：../Modbus-RTU-Master/record.txt
文件名称：record.txt
文件大小：99926
创建日期：2021-12-24 13:17:23
最后保存日期：2021-12-27 17:22:37


[2021-12-27 17:23:01]
串口打开成功！

[2021-12-27 17:23:01]
保存至路径：../Modbus-RTU-Master/record.txt
文件名称：record.txt
文件大小：100168
创建日期：2021-12-24 13:17:23
最后保存日期：2021-12-27 17:22:49


[2021-12-27 17:23:03]
报文发送： 01 01 00 00 00 03 7c 0b 

[2021-12-27 17:23:13]
保存至路径：../Modbus-RTU-Master/record.txt
文件名称：record.txt
文件大小：100411
创建日期：2021-12-24 13:17:23
最后保存日期：2021-12-27 17:23:01


[2021-12-27 17:23:17]
报文发送： 01 01 00 00 00 03 7c 0b 

[2021-12-27 17:23:25]
保存至路径：../Modbus-RTU-Master/record.txt
文件名称：record.txt
文件大小：100673
创建日期：2021-12-24 13:17:23
最后保存日期：2021-12-27 17:23:13


[2021-12-27 17:23:37]
保存至路径：../Modbus-RTU-Master/record.txt
文件名称：record.txt
文件大小：100935
创建日期：2021-12-24 13:17:23
最后保存日期：2021-12-27 17:23:25


[2021-12-27 17:23:49]
保存至路径：../Modbus-RTU-Master/record.txt
文件名称：record.txt
文件大小：101133
创建日期：2021-12-24 13:17:23
最后保存日期：2021-12-27 17:23:37


[2021-12-27 17:24:36]
串口打开成功！

[2021-12-27 17:24:44]
保存至路径：../Modbus-RTU-Master/record.txt
文件名称：record.txt
文件大小：101331
创建日期：2021-12-24 13:17:23
最后保存日期：2021-12-27 17:23:49


[2021-12-27 17:24:44]
报文发送： 01 03 00 00 00 03 05 cb 

[2021-12-27 17:24:44]
报文接收： 01 83 01 80 f0 

[2021-12-27 17:24:56]
保存至路径：../Modbus-RTU-Master/record.txt
文件名称：record.txt
文件大小：101574
创建日期：2021-12-24 13:17:23
最后保存日期：2021-12-27 17:24:44


[2021-12-27 17:25:08]
保存至路径：../Modbus-RTU-Master/record.txt
文件名称：record.txt
文件大小：101891
创建日期：2021-12-24 13:17:23
最后保存日期：2021-12-27 17:24:56


[2021-12-27 17:25:08]
报文发送： 01 03 00 00 00 03 05 cb 

[2021-12-27 17:25:09]
报文接收： 01 83 01 80 f0 01 03 06 00 01 00 02 00 03 fd 74 

[2021-12-27 17:25:20]
保存至路径：../Modbus-RTU-Master/record.txt
文件名称：record.txt
文件大小：102089
创建日期：2021-12-24 13:17:23
最后保存日期：2021-12-27 17:25:08


[2021-12-27 17:25:32]
保存至路径：../Modbus-RTU-Master/record.txt
文件名称：record.txt
文件大小：102439
创建日期：2021-12-24 13:17:23
最后保存日期：2021-12-27 17:25:20


[2021-12-27 17:25:44]
保存至路径：../Modbus-RTU-Master/record.txt
文件名称：record.txt
文件大小：102637
创建日期：2021-12-24 13:17:23
最后保存日期：2021-12-27 17:25:32


[2021-12-27 17:25:44]
报文发送： 01 03 00 00 00 10 44 06 

[2021-12-27 17:25:44]
报文接收： 01 83 01 80 f0 01 03 06 00 01 00 02 00 03 fd 74 01 83 02 c0 f1 

[2021-12-27 17:25:56]
保存至路径：../Modbus-RTU-Master/record.txt
文件名称：record.txt
文件大小：102835
创建日期：2021-12-24 13:17:23
最后保存日期：2021-12-27 17:25:44


[2021-12-27 17:26:00]
报文发送： 01 03 00 00 00 01 84 0a 

[2021-12-27 17:26:00]
报文接收： 01 83 01 80 f0 01 03 06 00 01 00 02 00 03 fd 74 01 83 02 c0 f1 01 03 02 00 01 79 84 

[2021-12-27 17:26:08]
保存至路径：../Modbus-RTU-Master/record.txt
文件名称：record.txt
文件大小：103200
创建日期：2021-12-24 13:17:23
最后保存日期：2021-12-27 17:25:56


[2021-12-27 17:26:20]
保存至路径：../Modbus-RTU-Master/record.txt
文件名称：record.txt
文件大小：103586
创建日期：2021-12-24 13:17:23
最后保存日期：2021-12-27 17:26:08


[2021-12-27 17:26:32]
保存至路径：../Modbus-RTU-Master/record.txt
文件名称：record.txt
文件大小：103784
创建日期：2021-12-24 13:17:23
最后保存日期：2021-12-27 17:26:20


[2021-12-27 17:26:38]
报文发送： 01 03 00 00 00 01 84 0a 

[2021-12-27 17:26:39]
报文接收： 01 83 01 80 f0 01 03 06 00 01 00 02 00 03 fd 74 01 83 02 c0 f1 01 03 02 00 01 79 84 01 03 02 00 01 79 84 

[2021-12-27 17:26:44]
保存至路径：../Modbus-RTU-Master/record.txt
文件名称：record.txt
文件大小：103982
创建日期：2021-12-24 13:17:23
最后保存日期：2021-12-27 17:26:32


[2021-12-27 17:26:45]
报文发送： 01 03 00 00 00 01 84 0a 

[2021-12-27 17:26:45]
报文接收： 01 83 01 80 f0 01 03 06 00 01 00 02 00 03 fd 74 01 83 02 c0 f1 01 03 02 00 01 79 84 01 03 02 00 01 79 84 01 03 02 00 01 79 84 

[2021-12-27 17:26:52]
报文发送： 01 03 00 00 00 08 44 0c 

[2021-12-27 17:26:53]
报文接收： 01 83 01 80 f0 01 03 06 00 01 00 02 00 03 fd 74 01 83 02 c0 f1 01 03 02 00 01 79 84 01 03 02 00 01 79 84 01 03 02 00 01 79 84 01 03 10 00 01 00 02 00 03 00 04 00 00 00 00 00 00 00 00 1f 9f 

[2021-12-27 17:26:56]
保存至路径：../Modbus-RTU-Master/record.txt
文件名称：record.txt
文件大小：104389
创建日期：2021-12-24 13:17:23
最后保存日期：2021-12-27 17:26:44


[2021-12-27 17:26:58]
报文发送： 01 03 00 00 00 08 44 0c 

[2021-12-27 17:26:58]
报文接收： 01 83 01 80 f0 01 03 06 00 01 00 02 00 03 fd 74 01 83 02 c0 f1 01 03 02 00 01 79 84 01 03 02 00 01 79 84 01 03 02 00 01 79 84 01 03 10 00 01 00 02 00 03 00 04 00 00 00 00 00 00 00 00 1f 9f 01 03 10 00 01 00 02 00 03 00 04 00 00 00 00 00 00 00 00 1f 9f 

[2021-12-27 17:27:08]
保存至路径：../Modbus-RTU-Master/record.txt
文件名称：record.txt
文件大小：105110
创建日期：2021-12-24 13:17:23
最后保存日期：2021-12-27 17:26:56


[2021-12-27 17:27:09]
报文发送： 01 03 00 00 00 08 44 0c 

[2021-12-27 17:27:10]
报文接收： 01 83 01 80 f0 01 03 06 00 01 00 02 00 03 fd 74 01 83 02 c0 f1 01 03 02 00 01 79 84 01 03 02 00 01 79 84 01 03 02 00 01 79 84 01 03 10 00 01 00 02 00 03 00 04 00 00 00 00 00 00 00 00 1f 9f 01 03 10 00 01 00 02 00 03 00 04 00 00 00 00 00 00 00 00 1f 9f 01 03 10 00 01 00 02 00 03 00 04 00 00 00 00 00 00 00 00 1f 9f 

[2021-12-27 17:27:20]
保存至路径：../Modbus-RTU-Master/record.txt
文件名称：record.txt
文件大小：105664
创建日期：2021-12-24 13:17:23
最后保存日期：2021-12-27 17:27:08


[2021-12-27 17:27:32]
保存至路径：../Modbus-RTU-Master/record.txt
文件名称：record.txt
文件大小：106281
创建日期：2021-12-24 13:17:23
最后保存日期：2021-12-27 17:27:20


[2021-12-27 17:27:44]
保存至路径：../Modbus-RTU-Master/record.txt
文件名称：record.txt
文件大小：106479
创建日期：2021-12-24 13:17:23
最后保存日期：2021-12-27 17:27:32


[2021-12-27 17:27:56]
保存至路径：../Modbus-RTU-Master/record.txt
文件名称：record.txt
文件大小：106677
创建日期：2021-12-24 13:17:23
最后保存日期：2021-12-27 17:27:44


[2021-12-27 17:28:03]
报文发送： 01 03 00 00 00 08 44 0c 

[2021-12-27 17:28:03]
报文接收： 01 83 01 80 f0 01 03 06 00 01 00 02 00 03 fd 74 01 83 02 c0 f1 01 03 02 00 01 79 84 01 03 02 00 01 79 84 01 03 02 00 01 79 84 01 03 10 00 01 00 02 00 03 00 04 00 00 00 00 00 00 00 00 1f 9f 01 03 10 00 01 00 02 00 03 00 04 00 00 00 00 00 00 00 00 1f 9f 01 03 10 00 01 00 02 00 03 00 04 00 00 00 00 00 00 00 00 1f 9f 01 03 10 00 00 00 00 00 00 00 00 00 00 00 00 00 00 00 00 e4 59 

[2021-12-27 17:28:08]
保存至路径：../Modbus-RTU-Master/record.txt
文件名称：record.txt
文件大小：106875
创建日期：2021-12-24 13:17:23
最后保存日期：2021-12-27 17:27:56


[2021-12-27 17:28:12]
文件路径设置成功！
C:/Users/19943/Desktop/Modbus/Modbus-RTU/Modbus-RTU-Master/Modbus-RTU-Master/record.txt

[2021-12-27 17:28:20]
保存至路径：C:/Users/19943/Desktop/Modbus/Modbus-RTU/Modbus-RTU-Master/Modbus-RTU-Master/record.txt
文件名称：record.txt
文件大小：107555
创建日期：2021-12-24 13:17:23
最后保存日期：2021-12-27 17:28:08


[2021-12-27 17:28:32]
保存至路径：C:/Users/19943/Desktop/Modbus/Modbus-RTU/Modbus-RTU-Master/Modbus-RTU-Master/record.txt
文件名称：record.txt
文件大小：107948
创建日期：2021-12-24 13:17:23
最后保存日期：2021-12-27 17:28:20


[2021-12-27 17:28:44]
保存至路径：C:/Users/19943/Desktop/Modbus/Modbus-RTU/Modbus-RTU-Master/Modbus-RTU-Master/record.txt
文件名称：record.txt
文件大小：108202
创建日期：2021-12-24 13:17:23
最后保存日期：2021-12-27 17:28:32


[2021-12-27 17:28:56]
保存至路径：C:/Users/19943/Desktop/Modbus/Modbus-RTU/Modbus-RTU-Master/Modbus-RTU-Master/record.txt
文件名称：record.txt
文件大小：108456
创建日期：2021-12-24 13:17:23
最后保存日期：2021-12-27 17:28:44


[2021-12-27 17:28:57]
保存至路径：C:/Users/19943/Desktop/Modbus/Modbus-RTU/Modbus-RTU-Master/Modbus-RTU-Master/record.txt
文件名称：record.txt
文件大小：108710
创建日期：2021-12-24 13:17:23
最后保存日期：2021-12-27 17:28:56


[2021-12-27 17:32:32]
保存至路径：../Modbus-RTU-Master/record.txt
文件名称：record.txt
文件大小：108964
创建日期：2021-12-24 13:17:23
最后保存日期：2021-12-27 17:28:57


[2021-12-27 17:32:39]
串口打开失败，请重新设置！

[2021-12-27 17:32:43]
串口打开成功！

[2021-12-27 17:32:44]
保存至路径：../Modbus-RTU-Master/record.txt
文件名称：record.txt
文件大小：109162
创建日期：2021-12-24 13:17:23
最后保存日期：2021-12-27 17:32:32


[2021-12-27 17:32:54]
报文发送： 01 01 00 00 00 06 bc 08 

[2021-12-27 17:32:54]
报文接收： 01 01 01 21 91 90 

[2021-12-27 17:32:56]
保存至路径：../Modbus-RTU-Master/record.txt
文件名称：record.txt
文件大小：109468
创建日期：2021-12-24 13:17:23
最后保存日期：2021-12-27 17:32:44


[2021-12-27 17:33:05]
报文发送： 01 03 00 00 00 10 44 06 

[2021-12-27 17:33:05]
报文接收： 01 01 01 21 91 90 01 03 20 00 00 00 00 00 

[2021-12-27 17:33:05]
报文接收： 01 01 01 21 91 90 01 03 20 00 00 00 00 00 00 00 00 00 00 00 00 00 00 00 00 00 00 00 00 

[2021-12-27 17:33:05]
报文接收： 01 01 01 21 91 90 01 03 20 00 00 00 00 00 00 00 00 00 00 00 00 00 00 00 00 00 00 00 00 00 00 00 00 00 00 00 00 00 00 00 00 92 7a 

[2021-12-27 17:33:08]
保存至路径：../Modbus-RTU-Master/record.txt
文件名称：record.txt
文件大小：109788
创建日期：2021-12-24 13:17:23
最后保存日期：2021-12-27 17:32:56


[2021-12-27 17:33:14]
文件路径设置成功！
C:/Users/19943/Desktop/Modbus/Modbus-RTU/Modbus-RTU-Master/Modbus-RTU-Master/record.txt

[2021-12-27 17:33:20]
保存至路径：C:/Users/19943/Desktop/Modbus/Modbus-RTU/Modbus-RTU-Master/Modbus-RTU-Master/record.txt
文件名称：record.txt
文件大小：110428
创建日期：2021-12-24 13:17:23
最后保存日期：2021-12-27 17:33:08


[2021-12-27 17:33:32]
保存至路径：C:/Users/19943/Desktop/Modbus/Modbus-RTU/Modbus-RTU-Master/Modbus-RTU-Master/record.txt
文件名称：record.txt
文件大小：110821
创建日期：2021-12-24 13:17:23
最后保存日期：2021-12-27 17:33:20


[2021-12-27 17:33:44]
保存至路径：C:/Users/19943/Desktop/Modbus/Modbus-RTU/Modbus-RTU-Master/Modbus-RTU-Master/record.txt
文件名称：record.txt
文件大小：111075
创建日期：2021-12-24 13:17:23
最后保存日期：2021-12-27 17:33:32


[2021-12-27 17:33:53]
报文发送： 01 03 00 00 01 25 85 81 

[2021-12-27 17:33:53]
报文接收： 01 01 01 21 91 90 01 03 20 00 00 00 00 00 00 00 00 00 00 00 00 00 00 00 00 00 00 00 00 00 00 00 00 00 00 00 00 00 00 00 00 92 7a 01 

[2021-12-27 17:33:53]
报文接收： 01 01 01 21 91 90 01 03 20 00 00 00 00 00 00 00 00 00 00 00 00 00 00 00 00 00 00 00 00 00 00 00 00 00 00 00 00 00 00 00 00 92 7a 01 83 03 01 31 

[2021-12-27 17:33:56]
保存至路径：C:/Users/19943/Desktop/Modbus/Modbus-RTU/Modbus-RTU-Master/Modbus-RTU-Master/record.txt
文件名称：record.txt
文件大小：111329
创建日期：2021-12-24 13:17:23
最后保存日期：2021-12-27 17:33:44


[2021-12-27 17:34:08]
保存至路径：C:/Users/19943/Desktop/Modbus/Modbus-RTU/Modbus-RTU-Master/Modbus-RTU-Master/record.txt
文件名称：record.txt
文件大小：112003
创建日期：2021-12-24 13:17:23
最后保存日期：2021-12-27 17:33:56


[2021-12-27 17:34:20]
保存至路径：C:/Users/19943/Desktop/Modbus/Modbus-RTU/Modbus-RTU-Master/Modbus-RTU-Master/record.txt
文件名称：record.txt
文件大小：112257
创建日期：2021-12-24 13:17:23
最后保存日期：2021-12-27 17:34:08


[2021-12-27 17:34:21]
报文发送： 01 03 00 00 01 24 44 41 

[2021-12-27 17:34:21]
报文接收： 01 01 01 21 91 90 01 03 20 00 00 00 00 00 00 00 00 00 00 00 00 00 00 00 00 00 00 00 00 00 00 00 00 00 00 00 00 00 00 00 00 92 7a 01 83 03 01 31 01 83 03 01 31 

[2021-12-27 17:34:32]
保存至路径：C:/Users/19943/Desktop/Modbus/Modbus-RTU/Modbus-RTU-Master/Modbus-RTU-Master/record.txt
文件名称：record.txt
文件大小：112511
创建日期：2021-12-24 13:17:23
最后保存日期：2021-12-27 17:34:20


[2021-12-27 17:34:44]
保存至路径：C:/Users/19943/Desktop/Modbus/Modbus-RTU/Modbus-RTU-Master/Modbus-RTU-Master/record.txt
文件名称：record.txt
文件大小：113028
创建日期：2021-12-24 13:17:23
最后保存日期：2021-12-27 17:34:32


[2021-12-27 17:34:56]
保存至路径：C:/Users/19943/Desktop/Modbus/Modbus-RTU/Modbus-RTU-Master/Modbus-RTU-Master/record.txt
文件名称：record.txt
文件大小：113282
创建日期：2021-12-24 13:17:23
最后保存日期：2021-12-27 17:34:44


[2021-12-27 17:35:08]
保存至路径：C:/Users/19943/Desktop/Modbus/Modbus-RTU/Modbus-RTU-Master/Modbus-RTU-Master/record.txt
文件名称：record.txt
文件大小：113536
创建日期：2021-12-24 13:17:23
最后保存日期：2021-12-27 17:34:56


[2021-12-27 17:35:13]
报文发送： 01 03 00 04 01 24 05 80 

[2021-12-27 17:35:13]
报文接收： 01 01 01 21 91 90 01 03 20 00 00 00 00 00 00 00 00 00 00 00 00 00 00 00 00 00 00 00 00 00 00 00 00 00 00 00 00 00 00 00 00 92 7a 01 83 03 01 31 01 83 03 01 31 01 83 03 01 31 

[2021-12-27 17:35:20]
保存至路径：C:/Users/19943/Desktop/Modbus/Modbus-RTU/Modbus-RTU-Master/Modbus-RTU-Master/record.txt
文件名称：record.txt
文件大小：113790
创建日期：2021-12-24 13:17:23
最后保存日期：2021-12-27 17:35:08


[2021-12-27 17:35:25]
文件路径设置成功！
C:/Users/19943/Desktop/Modbus/Modbus-RTU/Modbus-RTU-Master/Modbus-RTU-Master/record.txt

[2021-12-27 17:35:32]
保存至路径：C:/Users/19943/Desktop/Modbus/Modbus-RTU/Modbus-RTU-Master/Modbus-RTU-Master/record.txt
文件名称：record.txt
文件大小：114322
创建日期：2021-12-24 13:17:23
最后保存日期：2021-12-27 17:35:20


[2021-12-27 17:35:44]
保存至路径：C:/Users/19943/Desktop/Modbus/Modbus-RTU/Modbus-RTU-Master/Modbus-RTU-Master/record.txt
文件名称：record.txt
文件大小：114715
创建日期：2021-12-24 13:17:23
最后保存日期：2021-12-27 17:35:32


[2021-12-27 17:35:45]
报文发送： 01 03 00 04 00 02 85 ca 

[2021-12-27 17:35:46]
报文接收： 01 01 01 21 91 90 01 03 20 00 00 00 00 00 00 00 00 00 00 00 00 00 00 00 00 00 00 00 00 00 00 00 00 00 00 00 00 00 00 00 00 92 7a 01 83 03 01 31 01 83 03 01 31 01 83 03 01 31 01 

[2021-12-27 17:35:46]
报文接收： 01 01 01 21 91 90 01 03 20 00 00 00 00 00 00 00 00 00 00 00 00 00 00 00 00 00 00 00 00 00 00 00 00 00 00 00 00 00 00 00 00 92 7a 01 83 03 01 31 01 83 03 01 31 01 83 03 01 31 01 03 04 00 00 00 00 fa 33 

[2021-12-27 17:35:56]
保存至路径：C:/Users/19943/Desktop/Modbus/Modbus-RTU/Modbus-RTU-Master/Modbus-RTU-Master/record.txt
文件名称：record.txt
文件大小：114969
创建日期：2021-12-24 13:17:23
最后保存日期：2021-12-27 17:35:44


[2021-12-27 17:35:59]
文件路径设置成功！
C:/Users/19943/Desktop/Modbus/Modbus-RTU/Modbus-RTU-Master/Modbus-RTU-Master/record.txt

[2021-12-27 17:36:08]
保存至路径：C:/Users/19943/Desktop/Modbus/Modbus-RTU/Modbus-RTU-Master/Modbus-RTU-Master/record.txt
文件名称：record.txt
文件大小：115745
创建日期：2021-12-24 13:17:23
最后保存日期：2021-12-27 17:35:56


[2021-12-27 17:36:20]
保存至路径：C:/Users/19943/Desktop/Modbus/Modbus-RTU/Modbus-RTU-Master/Modbus-RTU-Master/record.txt
文件名称：record.txt
文件大小：116138
创建日期：2021-12-24 13:17:23
最后保存日期：2021-12-27 17:36:08


[2021-12-27 17:36:32]
保存至路径：C:/Users/19943/Desktop/Modbus/Modbus-RTU/Modbus-RTU-Master/Modbus-RTU-Master/record.txt
文件名称：record.txt
文件大小：116392
创建日期：2021-12-24 13:17:23
最后保存日期：2021-12-27 17:36:20


[2021-12-27 17:36:44]
报文发送： 01 03 00 04 00 02 85 ca 

[2021-12-27 17:36:44]
保存至路径：C:/Users/19943/Desktop/Modbus/Modbus-RTU/Modbus-RTU-Master/Modbus-RTU-Master/record.txt
文件名称：record.txt
文件大小：116646
创建日期：2021-12-24 13:17:23
最后保存日期：2021-12-27 17:36:32


[2021-12-27 17:36:44]
报文接收： 01 01 01 21 91 90 01 03 20 00 00 00 00 00 00 00 00 00 00 00 00 00 00 00 00 00 00 00 00 00 00 00 00 00 00 00 00 00 00 00 00 92 7a 01 83 03 01 31 01 83 03 01 31 01 83 03 01 31 01 03 04 00 00 00 00 fa 33 01 03 04 00 00 00 00 fa 33 

[2021-12-27 17:36:45]
报文发送： 01 03 00 04 00 02 85 ca 

[2021-12-27 17:36:45]
报文接收： 01 01 01 21 91 90 01 03 20 00 00 00 00 00 00 00 00 00 00 00 00 00 00 00 00 00 00 00 00 00 00 00 00 00 00 00 00 00 00 00 00 92 7a 01 83 03 01 31 01 83 03 01 31 01 83 03 01 31 01 03 04 00 00 00 00 fa 33 01 03 04 00 00 00 00 fa 33 01 03 04 00 00 00 00 fa 33 

[2021-12-27 17:36:56]
保存至路径：C:/Users/19943/Desktop/Modbus/Modbus-RTU/Modbus-RTU-Master/Modbus-RTU-Master/record.txt
文件名称：record.txt
文件大小：116964
创建日期：2021-12-24 13:17:23
最后保存日期：2021-12-27 17:36:44


[2021-12-27 17:37:01]
报文发送： 01 03 00 04 01 25 c4 40 

[2021-12-27 17:37:02]
报文接收： 01 01 01 21 91 90 01 03 20 00 00 00 00 00 00 00 00 00 00 00 00 00 00 00 00 00 00 00 00 00 00 00 00 00 00 00 00 00 00 00 00 92 7a 01 83 03 01 31 01 83 03 01 31 01 83 03 01 31 01 03 04 00 00 00 00 fa 33 01 03 04 00 00 00 00 fa 33 01 03 04 00 00 00 00 fa 33 01 83 03 01 

[2021-12-27 17:37:02]
报文接收： 01 01 01 21 91 90 01 03 20 00 00 00 00 00 00 00 00 00 00 00 00 00 00 00 00 00 00 00 00 00 00 00 00 00 00 00 00 00 00 00 00 92 7a 01 83 03 01 31 01 83 03 01 31 01 83 03 01 31 01 03 04 00 00 00 00 fa 33 01 03 04 00 00 00 00 fa 33 01 03 04 00 00 00 00 fa 33 01 83 03 01 31 

[2021-12-27 17:37:08]
保存至路径：C:/Users/19943/Desktop/Modbus/Modbus-RTU/Modbus-RTU-Master/Modbus-RTU-Master/record.txt
文件名称：record.txt
文件大小：117845
创建日期：2021-12-24 13:17:23
最后保存日期：2021-12-27 17:36:56


[2021-12-27 17:37:13]
保存至路径：C:/Users/19943/Desktop/Modbus/Modbus-RTU/Modbus-RTU-Master/Modbus-RTU-Master/record.txt
文件名称：record.txt
文件大小：118780
创建日期：2021-12-24 13:17:23
最后保存日期：2021-12-27 17:37:08


[2021-12-27 17:39:30]
串口打开成功！

[2021-12-27 17:39:41]
报文发送： 01 01 00 00 00 20 3d d2 

[2021-12-27 17:39:41]
报文接收： 01 01 04 a1 01 00 00 89 ed 

[2021-12-27 17:39:45]
报文发送： 01 01 00 00 02 00 3d 6a 

[2021-12-27 17:39:46]
报文接收： 01 01 04 a1 01 00 00 89 ed 01 01 40 a1 01 

[2021-12-27 17:39:46]
报文接收： 01 01 04 a1 01 00 00 89 ed 01 01 40 a1 01 00 00 00 00 00 00 00 00 00 00 00 00 00 00 00 

[2021-12-27 17:39:46]
报文接收： 01 01 04 a1 01 00 00 89 ed 01 01 40 a1 01 00 00 00 00 00 00 00 00 00 00 00 00 00 00 00 00 00 00 00 00 00 00 00 00 00 00 00 00 00 00 

[2021-12-27 17:39:46]
报文接收： 01 01 04 a1 01 00 00 89 ed 01 01 40 a1 01 00 00 00 00 00 00 00 00 00 00 00 00 00 00 00 00 00 00 00 00 00 00 00 00 00 00 00 00 00 00 00 00 00 00 00 00 00 10 00 00 00 00 00 00 00 

[2021-12-27 17:39:46]
报文接收： 01 01 04 a1 01 00 00 89 ed 01 01 40 a1 01 00 00 00 00 00 00 00 00 00 00 00 00 00 00 00 00 00 00 00 00 00 00 00 00 00 00 00 00 00 00 00 00 00 00 00 00 00 10 00 00 00 00 00 00 00 00 00 00 00 00 00 00 00 00 00 00 00 00 00 00 

[2021-12-27 17:39:46]
报文接收： 01 01 04 a1 01 00 00 89 ed 01 01 40 a1 01 00 00 00 00 00 00 00 00 00 00 00 00 00 00 00 00 00 00 00 00 00 00 00 00 00 00 00 00 00 00 00 00 00 00 00 00 00 10 00 00 00 00 00 00 00 00 00 00 00 00 00 00 00 00 00 00 00 00 00 00 00 00 95 dd 

[2021-12-27 17:40:13]
报文发送： 01 01 00 00 20 00 25 ca 

[2021-12-27 17:40:13]
报文接收： 01 01 04 a1 01 00 00 89 ed 01 01 40 a1 01 00 00 00 00 00 00 00 00 00 00 00 00 00 00 00 00 00 00 00 00 00 00 00 00 00 00 00 00 00 00 00 00 00 00 00 00 00 10 00 00 00 00 00 00 00 00 00 00 00 00 00 00 00 00 00 00 00 00 00 00 00 00 95 dd 01 81 03 00 51 

[2021-12-27 17:40:39]
报文发送： 01 01 00 00 19 99 f7 f0 

[2021-12-27 17:40:39]
报文接收： 01 01 04 a1 01 00 00 89 ed 01 01 40 a1 01 00 00 00 00 00 00 00 00 00 00 00 00 00 00 00 00 00 00 00 00 00 00 00 00 00 00 00 00 00 00 00 00 00 00 00 00 00 10 00 00 00 00 00 00 00 00 00 00 00 00 00 00 00 00 00 00 00 00 00 00 00 00 95 dd 01 81 03 00 51 01 81 03 00 51 

[2021-12-27 17:41:01]
报文发送： 01 01 00 00 20 00 25 ca 

[2021-12-27 17:41:01]
报文接收： 01 01 04 a1 01 00 00 89 ed 01 01 40 a1 01 00 00 00 00 00 00 00 00 00 00 00 00 00 00 00 00 00 00 00 00 00 00 00 00 00 00 00 00 00 00 00 00 00 00 00 00 00 10 00 00 00 00 00 00 00 00 00 00 00 00 00 00 00 00 00 00 00 00 00 00 00 00 95 dd 01 81 03 00 51 01 81 03 00 51 01 

[2021-12-27 17:41:01]
报文接收： 01 01 04 a1 01 00 00 89 ed 01 01 40 a1 01 00 00 00 00 00 00 00 00 00 00 00 00 00 00 00 00 00 00 00 00 00 00 00 00 00 00 00 00 00 00 00 00 00 00 00 00 00 10 00 00 00 00 00 00 00 00 00 00 00 00 00 00 00 00 00 00 00 00 00 00 00 00 95 dd 01 81 03 00 51 01 81 03 00 51 01 81 03 00 51 

[2021-12-27 17:41:19]
报文发送： 01 01 00 00 00 15 fd c5 

[2021-12-27 17:41:19]
报文接收： 01 01 04 a1 01 00 00 89 ed 01 01 40 a1 01 00 00 00 00 00 00 00 00 00 00 00 00 00 00 00 00 00 00 00 00 00 00 00 00 00 00 00 00 00 00 00 00 00 00 00 00 00 10 00 00 00 00 00 00 00 00 00 00 00 00 00 00 00 00 00 00 00 00 00 00 00 00 95 dd 01 81 03 00 51 01 81 03 00 51 01 81 03 00 51 01 01 03 a1 01 00 6c 3c 

[2021-12-27 17:41:23]
报文发送： 01 01 00 00 00 16 bd c4 

[2021-12-27 17:41:24]
报文接收： 01 01 04 a1 01 00 00 89 ed 01 01 40 a1 01 00 00 00 00 00 00 00 00 00 00 00 00 00 00 00 00 00 00 00 00 00 00 00 00 00 00 00 00 00 00 00 00 00 00 00 00 00 10 00 00 00 00 00 00 00 00 00 00 00 00 00 00 00 00 00 00 00 00 00 00 00 00 95 dd 01 81 03 00 51 01 81 03 00 51 01 81 03 00 51 01 01 03 a1 01 00 6c 3c 01 01 03 

[2021-12-27 17:41:24]
报文接收： 01 01 04 a1 01 00 00 89 ed 01 01 40 a1 01 00 00 00 00 00 00 00 00 00 00 00 00 00 00 00 00 00 00 00 00 00 00 00 00 00 00 00 00 00 00 00 00 00 00 00 00 00 10 00 00 00 00 00 00 00 00 00 00 00 00 00 00 00 00 00 00 00 00 00 00 00 00 95 dd 01 81 03 00 51 01 81 03 00 51 01 81 03 00 51 01 01 03 a1 01 00 6c 3c 01 01 03 a1 01 00 6c 3c 

[2021-12-27 17:41:38]
报文发送： 01 01 00 00 20 00 25 ca 

[2021-12-27 17:41:38]
报文接收： 01 01 04 a1 01 00 00 89 ed 01 01 40 a1 01 00 00 00 00 00 00 00 00 00 00 00 00 00 00 00 00 00 00 00 00 00 00 00 00 00 00 00 00 00 00 00 00 00 00 00 00 00 10 00 00 00 00 00 00 00 00 00 00 00 00 00 00 00 00 00 00 00 00 00 00 00 00 95 dd 01 81 03 00 51 01 81 03 00 51 01 81 03 00 51 01 01 03 a1 01 00 6c 3c 01 01 03 a1 01 00 6c 3c 01 81 03 00 51 

[2021-12-27 17:41:49]
保存至路径：../Modbus-RTU-Master/record.txt
文件名称：record.txt
文件大小：119034
创建日期：2021-12-24 13:17:23
最后保存日期：2021-12-27 17:37:13


[2021-12-27 17:44:56]
串口打开成功！

[2021-12-27 17:45:03]
报文发送： 01 01 00 00 07 d0 3f a6 

[2021-12-27 17:45:30]
报文发送： 17 01 00 00 07 d0 3d 50 

[2021-12-27 17:45:37]
报文发送： 01 01 00 00 07 d0 3f a6 

[2021-12-27 17:45:37]
报文接收： 01 01 fa a1 01 00 00 00 00 00 00 00 00 00 

[2021-12-27 17:45:38]
报文接收： 01 01 fa a1 01 00 00 00 00 00 00 00 00 00 00 00 00 00 00 00 00 00 00 00 00 00 00 00 00 

[2021-12-27 17:45:38]
报文接收： 01 01 fa a1 01 00 00 00 00 00 00 00 00 00 00 00 00 00 00 00 00 00 00 00 00 00 00 00 00 00 00 00 00 00 00 00 00 00 00 00 00 00 10 00 

[2021-12-27 17:45:38]
报文接收： 01 01 fa a1 01 00 00 00 00 00 00 00 00 00 00 00 00 00 00 00 00 00 00 00 00 00 00 00 00 00 00 00 00 00 00 00 00 00 00 00 00 00 10 00 00 00 00 00 00 00 00 00 00 00 00 00 00 00 00 

[2021-12-27 17:45:38]
报文接收： 01 01 fa a1 01 00 00 00 00 00 00 00 00 00 00 00 00 00 00 00 00 00 00 00 00 00 00 00 00 00 00 00 00 00 00 00 00 00 00 00 00 00 10 00 00 00 00 00 00 00 00 00 00 00 00 00 00 00 00 00 00 00 00 00 00 00 00 00 00 01 00 00 00 00 

[2021-12-27 17:45:38]
报文接收： 01 01 fa a1 01 00 00 00 00 00 00 00 00 00 00 00 00 00 00 00 00 00 00 00 00 00 00 00 00 00 00 00 00 00 00 00 00 00 00 00 00 00 10 00 00 00 00 00 00 00 00 00 00 00 00 00 00 00 00 00 00 00 00 00 00 00 00 00 00 01 00 00 00 00 00 00 00 00 00 00 00 00 00 00 00 00 00 00 00 

[2021-12-27 17:45:38]
报文接收： 01 01 fa a1 01 00 00 00 00 00 00 00 00 00 00 00 00 00 00 00 00 00 00 00 00 00 00 00 00 00 00 00 00 00 00 00 00 00 00 00 00 00 10 00 00 00 00 00 00 00 00 00 00 00 00 00 00 00 00 00 00 00 00 00 00 00 00 00 00 01 00 00 00 00 00 00 00 00 00 00 00 00 00 00 00 00 00 00 00 00 00 00 00 00 00 00 00 00 00 00 00 00 00 00 

[2021-12-27 17:45:38]
报文接收： 01 01 fa a1 01 00 00 00 00 00 00 00 00 00 00 00 00 00 00 00 00 00 00 00 00 00 00 00 00 00 00 00 00 00 00 00 00 00 00 00 00 00 10 00 00 00 00 00 00 00 00 00 00 00 00 00 00 00 00 00 00 00 00 00 00 00 00 00 00 01 00 00 00 00 00 00 00 00 00 00 00 00 00 00 00 00 00 00 00 00 00 00 00 00 00 00 00 00 00 00 00 00 00 00 00 00 00 00 00 00 00 00 00 00 00 00 00 00 00 

[2021-12-27 17:45:38]
报文接收： 01 01 fa a1 01 00 00 00 00 00 00 00 00 00 00 00 00 00 00 00 00 00 00 00 00 00 00 00 00 00 00 00 00 00 00 00 00 00 00 00 00 00 10 00 00 00 00 00 00 00 00 00 00 00 00 00 00 00 00 00 00 00 00 00 00 00 00 00 00 01 00 00 00 00 00 00 00 00 00 00 00 00 00 00 00 00 00 00 00 00 00 00 00 00 00 00 00 00 00 00 00 00 00 00 00 00 00 00 00 00 00 00 00 00 00 00 00 00 00 00 00 00 00 00 00 00 00 00 00 00 00 00 00 00 

[2021-12-27 17:45:38]
报文接收： 01 01 fa a1 01 00 00 00 00 00 00 00 00 00 00 00 00 00 00 00 00 00 00 00 00 00 00 00 00 00 00 00 00 00 00 00 00 00 00 00 00 00 10 00 00 00 00 00 00 00 00 00 00 00 00 00 00 00 00 00 00 00 00 00 00 00 00 00 00 01 00 00 00 00 00 00 00 00 00 00 00 00 00 00 00 00 00 00 00 00 00 00 00 00 00 00 00 00 00 00 00 00 00 00 00 00 00 00 00 00 00 00 00 00 00 00 00 00 00 00 00 00 00 00 00 00 00 00 00 00 00 00 00 00 00 00 00 00 00 00 00 00 00 00 00 00 00 00 00 

[2021-12-27 17:45:38]
报文接收： 01 01 fa a1 01 00 00 00 00 00 00 00 00 00 00 00 00 00 00 00 00 00 00 00 00 00 00 00 00 00 00 00 00 00 00 00 00 00 00 00 00 00 10 00 00 00 00 00 00 00 00 00 00 00 00 00 00 00 00 00 00 00 00 00 00 00 00 00 00 01 00 00 00 00 00 00 00 00 00 00 00 00 00 00 00 00 00 00 00 00 00 00 00 00 00 00 00 00 00 00 00 00 00 00 00 00 00 00 00 00 00 00 00 00 00 00 00 00 00 00 00 00 00 00 00 00 00 00 00 00 00 00 00 00 00 00 00 00 00 00 00 00 00 00 00 00 00 00 00 00 00 00 00 00 00 00 00 00 00 00 00 00 00 00 

[2021-12-27 17:45:38]
报文接收： 01 01 fa a1 01 00 00 00 00 00 00 00 00 00 00 00 00 00 00 00 00 00 00 00 00 00 00 00 00 00 00 00 00 00 00 00 00 00 00 00 00 00 10 00 00 00 00 00 00 00 00 00 00 00 00 00 00 00 00 00 00 00 00 00 00 00 00 00 00 01 00 00 00 00 00 00 00 00 00 00 00 00 00 00 00 00 00 00 00 00 00 00 00 00 00 00 00 00 00 00 00 00 00 00 00 00 00 00 00 00 00 00 00 00 00 00 00 00 00 00 00 00 00 00 00 00 00 00 00 00 00 00 00 00 00 00 00 00 00 00 00 00 00 00 00 00 00 00 00 00 00 00 00 00 00 00 00 00 00 00 00 00 00 00 00 00 00 00 00 00 00 00 00 00 00 00 00 00 00 

[2021-12-27 17:45:38]
报文接收： 01 01 fa a1 01 00 00 00 00 00 00 00 00 00 00 00 00 00 00 00 00 00 00 00 00 00 00 00 00 00 00 00 00 00 00 00 00 00 00 00 00 00 10 00 00 00 00 00 00 00 00 00 00 00 00 00 00 00 00 00 00 00 00 00 00 00 00 00 00 01 00 00 00 00 00 00 00 00 00 00 00 00 00 00 00 00 00 00 00 00 00 00 00 00 00 00 00 00 00 00 00 00 00 00 00 00 00 00 00 00 00 00 00 00 00 00 00 00 00 00 00 00 00 00 00 00 00 00 00 00 00 00 00 00 00 00 00 00 00 00 00 00 00 00 00 00 00 00 00 00 00 00 00 00 00 00 00 00 00 00 00 00 00 00 00 00 00 00 00 00 00 00 00 00 00 00 00 00 00 00 00 00 00 00 00 00 00 00 00 00 00 00 00 00 

[2021-12-27 17:45:38]
报文接收： 01 01 fa a1 01 00 00 00 00 00 00 00 00 00 00 00 00 00 00 00 00 00 00 00 00 00 00 00 00 00 00 00 00 00 00 00 00 00 00 00 00 00 10 00 00 00 00 00 00 00 00 00 00 00 00 00 00 00 00 00 00 00 00 00 00 00 00 00 00 01 00 00 00 00 00 00 00 00 00 00 00 00 00 00 00 00 00 00 00 00 00 00 00 00 00 00 00 00 00 00 00 00 00 00 00 00 00 00 00 00 00 00 00 00 00 00 00 00 00 00 00 00 00 00 00 00 00 00 00 00 00 00 00 00 00 00 00 00 00 00 00 00 00 00 00 00 00 00 00 00 00 00 00 00 00 00 00 00 00 00 00 00 00 00 00 00 00 00 00 00 00 00 00 00 00 00 00 00 00 00 00 00 00 00 00 00 00 00 00 00 00 00 00 00 00 00 00 00 00 00 00 00 00 00 00 00 00 00 00 

[2021-12-27 17:45:38]
报文接收： 01 01 fa a1 01 00 00 00 00 00 00 00 00 00 00 00 00 00 00 00 00 00 00 00 00 00 00 00 00 00 00 00 00 00 00 00 00 00 00 00 00 00 10 00 00 00 00 00 00 00 00 00 00 00 00 00 00 00 00 00 00 00 00 00 00 00 00 00 00 01 00 00 00 00 00 00 00 00 00 00 00 00 00 00 00 00 00 00 00 00 00 00 00 00 00 00 00 00 00 00 00 00 00 00 00 00 00 00 00 00 00 00 00 00 00 00 00 00 00 00 00 00 00 00 00 00 00 00 00 00 00 00 00 00 00 00 00 00 00 00 00 00 00 00 00 00 00 00 00 00 00 00 00 00 00 00 00 00 00 00 00 00 00 00 00 00 00 00 00 00 00 00 00 00 00 00 00 00 00 00 00 00 00 00 00 00 00 00 00 00 00 00 00 00 00 00 00 00 00 00 00 00 00 00 00 00 00 00 00 00 00 00 00 00 00 00 00 00 00 00 00 00 00 00 

[2021-12-27 17:45:38]
报文接收： 01 01 fa a1 01 00 00 00 00 00 00 00 00 00 00 00 00 00 00 00 00 00 00 00 00 00 00 00 00 00 00 00 00 00 00 00 00 00 00 00 00 00 10 00 00 00 00 00 00 00 00 00 00 00 00 00 00 00 00 00 00 00 00 00 00 00 00 00 00 01 00 00 00 00 00 00 00 00 00 00 00 00 00 00 00 00 00 00 00 00 00 00 00 00 00 00 00 00 00 00 00 00 00 00 00 00 00 00 00 00 00 00 00 00 00 00 00 00 00 00 00 00 00 00 00 00 00 00 00 00 00 00 00 00 00 00 00 00 00 00 00 00 00 00 00 00 00 00 00 00 00 00 00 00 00 00 00 00 00 00 00 00 00 00 00 00 00 00 00 00 00 00 00 00 00 00 00 00 00 00 00 00 00 00 00 00 00 00 00 00 00 00 00 00 00 00 00 00 00 00 00 00 00 00 00 00 00 00 00 00 00 00 00 00 00 00 00 00 00 00 00 00 00 00 00 00 00 00 00 00 00 00 00 00 00 00 b1 00 00 

[2021-12-27 17:45:38]
报文接收： 01 01 fa a1 01 00 00 00 00 00 00 00 00 00 00 00 00 00 00 00 00 00 00 00 00 00 00 00 00 00 00 00 00 00 00 00 00 00 00 00 00 00 10 00 00 00 00 00 00 00 00 00 00 00 00 00 00 00 00 00 00 00 00 00 00 00 00 00 00 01 00 00 00 00 00 00 00 00 00 00 00 00 00 00 00 00 00 00 00 00 00 00 00 00 00 00 00 00 00 00 00 00 00 00 00 00 00 00 00 00 00 00 00 00 00 00 00 00 00 00 00 00 00 00 00 00 00 00 00 00 00 00 00 00 00 00 00 00 00 00 00 00 00 00 00 00 00 00 00 00 00 00 00 00 00 00 00 00 00 00 00 00 00 00 00 00 00 00 00 00 00 00 00 00 00 00 00 00 00 00 00 00 00 00 00 00 00 00 00 00 00 00 00 00 00 00 00 00 00 00 00 00 00 00 00 00 00 00 00 00 00 00 00 00 00 00 00 00 00 00 00 00 00 00 00 00 00 00 00 00 00 00 00 00 00 00 b1 00 00 00 00 00 00 00 00 a0 a0 a0 11 00 00 00 00 73 

[2021-12-27 17:45:38]
