[2021-08-17 15:40:15 星期二]
成功打开串口! 串口号：COM2

[2021-08-17 15:40:30 星期二]
收到来自串口：COM2的报文：
01 10 00 00 00 01 02 ff 02 66 
该报文CRC校验出错！

[2021-08-17 15:40:38 星期二]
已关闭串口：COM2

[2021-08-17 15:40:42 星期二]
成功打开串口! 串口号：COM2

[2021-08-17 15:40:43 星期二]
收到来自串口：COM2的报文：
01 10 00 00 00 01 02 ff 02 66 
该报文CRC校验出错！

[2021-08-17 15:42:28 星期二]
清除消息窗口！

[2021-08-17 15:42:42 星期二]
文件路径设置成功!

[2021-08-17 15:42:44 星期二]
保存至路径：F:/Trainning_Camp/2021_07_20/ModBus_RTU_slaver/build-ModBus_RTU_slaver-Desktop_Qt_5_4_0_MinGW_32bit-Debug/11.txt
文件名称：11.txt
文件大小：0
创建日期：2021-08-17 15:42:38
最后保存日期：2021-08-17 15:42:40


[2021-08-17 15:43:15 星期二]
收到来自串口：COM2的报文：
01 01 00 00 00 0a 02 22 4c 7d e1 
该请求报文长度不正确！

[2021-08-17 15:43:52 星期二]
收到来自串口：COM2的报文：
01 0f 00 00 00 0a 02 22 4c fc 6d 

[2021-08-17 15:43:52 星期二]
请求报文解析成功！
已向主机发送响应报文：01 0f 00 00 00 0a d5 cc 

[2021-08-17 15:44:50 星期二]
收到来自串口：COM2的报文：
01 01 00 00 00 0a bc 0d 

[2021-08-17 15:44:50 星期二]
请求报文解析成功！
已向主机发送响应报文：01 01 00 00 00 0a bc 0d 

[2021-08-17 15:45:14 星期二]
收到来自串口：COM2的报文：
01 01 00 00 00 0a bc 0d 

[2021-08-17 15:45:14 星期二]
请求报文解析成功！
已向主机发送响应报文：01 01 00 00 00 0a bc 0d 

[2021-08-17 15:47:26 星期二]
关闭应用程序！

[2021-12-08 13:57:35 星期三]
串口打开失败！请检查串口！

[2021-12-08 13:58:12 星期三]
无文件路径!，请先选择路径进行保存！

[2021-12-08 13:58:16 星期三]
文件路径设置成功!

[2021-12-08 14:03:15 星期三]
关闭应用程序！

[2021-12-13 15:56:03 星期一]
串口打开失败！请检查串口！

[2021-12-13 15:56:33 星期一]
串口打开失败！请检查串口！

[2021-12-13 15:57:12 星期一]
串口打开失败！请检查串口！

[2021-12-13 15:58:23 星期一]
成功打开串口! 串口号：COM1

[2021-12-13 15:58:49 星期一]
收到来自串口：COM1的报文：
01 03 00 00 00 0a c5 cd 

[2021-12-13 15:58:49 星期一]
请求报文解析成功！
已向主机发送响应报文：01 03 14 00 00 00 00 00 00 00 00 00 00 00 00 00 00 00 00 00 00 00 00 a3 67 

[2021-12-13 15:58:50 星期一]
收到来自串口：COM1的报文：
01 03 00 00 00 0a c5 cd 

[2021-12-13 15:58:50 星期一]
请求报文解析成功！
已向主机发送响应报文：01 03 14 00 00 00 00 00 00 00 00 00 00 00 00 00 00 00 00 00 00 00 00 a3 67 

[2021-12-13 15:58:51 星期一]
收到来自串口：COM1的报文：
01 03 00 00 00 0a c5 cd 

[2021-12-13 15:58:51 星期一]
请求报文解析成功！
已向主机发送响应报文：01 03 14 00 00 00 00 00 00 00 00 00 00 00 00 00 00 00 00 00 00 00 00 a3 67 

[2021-12-13 15:58:52 星期一]
收到来自串口：COM1的报文：
01 03 00 00 00 0a c5 cd 

[2021-12-13 15:58:52 星期一]
请求报文解析成功！
已向主机发送响应报文：01 03 14 00 00 00 00 00 00 00 00 00 00 00 00 00 00 00 00 00 00 00 00 a3 67 

[2021-12-13 15:58:53 星期一]
收到来自串口：COM1的报文：
01 03 00 00 00 0a c5 cd 

[2021-12-13 15:58:53 星期一]
请求报文解析成功！
已向主机发送响应报文：01 03 14 00 00 00 00 00 00 00 00 00 00 00 00 00 00 00 00 00 00 00 00 a3 67 

[2021-12-13 15:58:54 星期一]
收到来自串口：COM1的报文：
01 03 00 00 00 0a c5 cd 

[2021-12-13 15:58:54 星期一]
请求报文解析成功！
已向主机发送响应报文：01 03 14 00 00 00 00 00 00 00 00 00 00 00 00 00 00 00 00 00 00 00 00 a3 67 

[2021-12-13 15:58:55 星期一]
收到来自串口：COM1的报文：
01 03 00 00 00 0a c5 cd 

[2021-12-13 15:58:55 星期一]
请求报文解析成功！
已向主机发送响应报文：01 03 14 00 00 00 00 00 00 00 00 00 00 00 00 00 00 00 00 00 00 00 00 a3 67 

[2021-12-13 15:58:56 星期一]
收到来自串口：COM1的报文：
01 03 00 00 00 0a c5 cd 

[2021-12-13 15:58:56 星期一]
请求报文解析成功！
已向主机发送响应报文：01 03 14 00 00 00 00 00 00 00 00 00 00 00 00 00 00 00 00 00 00 00 00 a3 67 

[2021-12-13 15:58:57 星期一]
收到来自串口：COM1的报文：
01 03 00 00 00 0a c5 cd 

[2021-12-13 15:58:57 星期一]
请求报文解析成功！
已向主机发送响应报文：01 03 14 00 00 00 00 00 00 00 00 00 00 00 00 00 00 00 00 00 00 00 00 a3 67 

[2021-12-13 15:58:58 星期一]
收到来自串口：COM1的报文：
01 03 00 00 00 0a c5 cd 

[2021-12-13 15:58:58 星期一]
请求报文解析成功！
已向主机发送响应报文：01 03 14 00 00 00 00 00 00 00 00 00 00 00 00 00 00 00 00 00 00 00 00 a3 67 

[2021-12-13 15:58:59 星期一]
收到来自串口：COM1的报文：
01 03 00 00 00 0a c5 cd 

[2021-12-13 15:58:59 星期一]
请求报文解析成功！
已向主机发送响应报文：01 03 14 00 00 00 00 00 00 00 00 00 00 00 00 00 00 00 00 00 00 00 00 a3 67 

[2021-12-13 15:59:00 星期一]
收到来自串口：COM1的报文：
01 03 00 00 00 0a c5 cd 

[2021-12-13 15:59:00 星期一]
请求报文解析成功！
已向主机发送响应报文：01 03 14 00 00 00 00 00 00 00 00 00 00 00 00 00 00 00 00 00 00 00 00 a3 67 

[2021-12-13 15:59:01 星期一]
收到来自串口：COM1的报文：
01 03 00 00 00 0a c5 cd 

[2021-12-13 15:59:01 星期一]
请求报文解析成功！
已向主机发送响应报文：01 03 14 00 00 00 00 00 00 00 00 00 00 00 00 00 00 00 00 00 00 00 00 a3 67 

[2021-12-13 15:59:02 星期一]
收到来自串口：COM1的报文：
01 03 00 00 00 0a c5 cd 

[2021-12-13 15:59:02 星期一]
请求报文解析成功！
已向主机发送响应报文：01 03 14 00 00 00 00 00 00 00 00 00 00 00 00 00 00 00 00 00 00 00 00 a3 67 

[2021-12-13 15:59:03 星期一]
收到来自串口：COM1的报文：
01 03 00 00 00 0a c5 cd 

[2021-12-13 15:59:03 星期一]
请求报文解析成功！
已向主机发送响应报文：01 03 14 00 00 00 00 00 00 00 00 00 00 00 00 00 00 00 00 00 00 00 00 a3 67 

[2021-12-13 15:59:04 星期一]
收到来自串口：COM1的报文：
01 03 00 00 00 0a c5 cd 

[2021-12-13 15:59:04 星期一]
请求报文解析成功！
已向主机发送响应报文：01 03 14 00 00 00 00 00 00 00 00 00 00 00 00 00 00 00 00 00 00 00 00 a3 67 

[2021-12-13 15:59:05 星期一]
收到来自串口：COM1的报文：
01 03 00 00 00 0a c5 cd 

[2021-12-13 15:59:05 星期一]
请求报文解析成功！
已向主机发送响应报文：01 03 14 00 00 00 00 00 00 00 00 00 00 00 00 00 00 00 00 00 00 00 00 a3 67 

[2021-12-13 15:59:06 星期一]
收到来自串口：COM1的报文：
01 03 00 00 00 0a c5 cd 

[2021-12-13 15:59:06 星期一]
请求报文解析成功！
已向主机发送响应报文：01 03 14 00 00 00 00 00 00 00 00 00 00 00 00 00 00 00 00 00 00 00 00 a3 67 

[2021-12-13 15:59:07 星期一]
收到来自串口：COM1的报文：
01 03 00 00 00 0a c5 cd 

[2021-12-13 15:59:07 星期一]
请求报文解析成功！
已向主机发送响应报文：01 03 14 00 00 00 00 00 00 00 00 00 00 00 00 00 00 00 00 00 00 00 00 a3 67 

[2021-12-13 15:59:08 星期一]
收到来自串口：COM1的报文：
01 03 00 00 00 0a c5 cd 

[2021-12-13 15:59:08 星期一]
请求报文解析成功！
已向主机发送响应报文：01 03 14 00 00 00 00 00 00 00 00 00 00 00 00 00 00 00 00 00 00 00 00 a3 67 

[2021-12-13 15:59:09 星期一]
收到来自串口：COM1的报文：
01 03 00 00 00 0a c5 cd 

[2021-12-13 15:59:09 星期一]
请求报文解析成功！
已向主机发送响应报文：01 03 14 00 00 00 00 00 00 00 00 00 00 00 00 00 00 00 00 00 00 00 00 a3 67 

[2021-12-13 15:59:10 星期一]
收到来自串口：COM1的报文：
01 03 00 00 00 0a c5 cd 

[2021-12-13 15:59:10 星期一]
请求报文解析成功！
已向主机发送响应报文：01 03 14 00 00 00 00 00 00 00 00 00 00 00 00 00 00 00 00 00 00 00 00 a3 67 

[2021-12-13 15:59:11 星期一]
收到来自串口：COM1的报文：
01 03 00 00 00 0a c5 cd 

[2021-12-13 15:59:11 星期一]
请求报文解析成功！
已向主机发送响应报文：01 03 14 00 00 00 00 00 00 00 00 00 00 00 00 00 00 00 00 00 00 00 00 a3 67 

[2021-12-13 15:59:12 星期一]
收到来自串口：COM1的报文：
01 03 00 00 00 0a c5 cd 

[2021-12-13 15:59:12 星期一]
请求报文解析成功！
已向主机发送响应报文：01 03 14 00 00 00 00 00 00 00 00 00 00 00 00 00 00 00 00 00 00 00 00 a3 67 

[2021-12-13 15:59:13 星期一]
收到来自串口：COM1的报文：
01 03 00 00 00 0a c5 cd 

[2021-12-13 15:59:13 星期一]
请求报文解析成功！
已向主机发送响应报文：01 03 14 00 00 00 00 00 00 00 00 00 00 00 00 00 00 00 00 00 00 00 00 a3 67 

[2021-12-13 15:59:14 星期一]
收到来自串口：COM1的报文：
01 03 00 00 00 0a c5 cd 

[2021-12-13 15:59:14 星期一]
请求报文解析成功！
已向主机发送响应报文：01 03 14 00 00 00 00 00 00 00 00 00 00 00 00 00 00 00 00 00 00 00 00 a3 67 

[2021-12-13 15:59:15 星期一]
收到来自串口：COM1的报文：
01 03 00 00 00 0a c5 cd 

[2021-12-13 15:59:15 星期一]
请求报文解析成功！
已向主机发送响应报文：01 03 14 00 00 00 00 00 00 00 00 00 00 00 00 00 00 00 00 00 00 00 00 a3 67 

[2021-12-13 15:59:16 星期一]
收到来自串口：COM1的报文：
01 03 00 00 00 0a c5 cd 

[2021-12-13 15:59:16 星期一]
请求报文解析成功！
已向主机发送响应报文：01 03 14 00 00 00 00 00 00 00 00 00 00 00 00 00 00 00 00 00 00 00 00 a3 67 

[2021-12-13 15:59:17 星期一]
收到来自串口：COM1的报文：
01 03 00 00 00 0a c5 cd 

[2021-12-13 15:59:17 星期一]
请求报文解析成功！
已向主机发送响应报文：01 03 14 00 00 00 00 00 00 00 00 00 00 00 00 00 00 00 00 00 00 00 00 a3 67 

[2021-12-13 15:59:18 星期一]
收到来自串口：COM1的报文：
01 03 00 00 00 0a c5 cd 

[2021-12-13 15:59:18 星期一]
请求报文解析成功！
已向主机发送响应报文：01 03 14 00 00 00 00 00 00 00 00 00 00 00 00 00 00 00 00 00 00 00 00 a3 67 

[2021-12-13 15:59:19 星期一]
收到来自串口：COM1的报文：
01 03 00 00 00 0a c5 cd 

[2021-12-13 15:59:19 星期一]
请求报文解析成功！
已向主机发送响应报文：01 03 14 00 00 00 00 00 00 00 00 00 00 00 00 00 00 00 00 00 00 00 00 a3 67 

[2021-12-13 15:59:20 星期一]
收到来自串口：COM1的报文：
01 03 00 00 00 0a c5 cd 

[2021-12-13 15:59:20 星期一]
请求报文解析成功！
已向主机发送响应报文：01 03 14 00 00 00 00 00 00 00 00 00 00 00 00 00 00 00 00 00 00 00 00 a3 67 

[2021-12-13 15:59:21 星期一]
收到来自串口：COM1的报文：
01 03 00 00 00 0a c5 cd 

[2021-12-13 15:59:21 星期一]
请求报文解析成功！
已向主机发送响应报文：01 03 14 00 00 00 00 00 00 00 00 00 00 00 00 00 00 00 00 00 00 00 00 a3 67 

[2021-12-13 15:59:22 星期一]
收到来自串口：COM1的报文：
01 03 00 00 00 0a c5 cd 

[2021-12-13 15:59:22 星期一]
请求报文解析成功！
已向主机发送响应报文：01 03 14 00 00 00 00 00 00 00 00 00 00 00 00 00 00 00 00 00 00 00 00 a3 67 

[2021-12-13 15:59:23 星期一]
收到来自串口：COM1的报文：
01 03 00 00 00 0a c5 cd 

[2021-12-13 15:59:23 星期一]
请求报文解析成功！
已向主机发送响应报文：01 03 14 00 00 00 00 00 00 00 00 00 00 00 00 00 00 00 00 00 00 00 00 a3 67 

[2021-12-13 15:59:24 星期一]
收到来自串口：COM1的报文：
01 03 00 00 00 0a c5 cd 

[2021-12-13 15:59:24 星期一]
请求报文解析成功！
已向主机发送响应报文：01 03 14 00 00 00 00 00 00 00 00 00 00 00 00 00 00 00 00 00 00 00 00 a3 67 

[2021-12-13 15:59:25 星期一]
收到来自串口：COM1的报文：
01 03 00 00 00 0a c5 cd 

[2021-12-13 15:59:25 星期一]
请求报文解析成功！
已向主机发送响应报文：01 03 14 00 00 00 00 00 00 00 00 00 00 00 00 00 00 00 00 00 00 00 00 a3 67 

[2021-12-13 15:59:26 星期一]
收到来自串口：COM1的报文：
01 03 00 00 00 0a c5 cd 

[2021-12-13 15:59:26 星期一]
请求报文解析成功！
已向主机发送响应报文：01 03 14 00 00 00 00 00 00 00 00 00 00 00 00 00 00 00 00 00 00 00 00 a3 67 

[2021-12-13 15:59:27 星期一]
收到来自串口：COM1的报文：
01 03 00 00 00 0a c5 cd 

[2021-12-13 15:59:27 星期一]
请求报文解析成功！
已向主机发送响应报文：01 03 14 00 00 00 00 00 00 00 00 00 00 00 00 00 00 00 00 00 00 00 00 a3 67 

[2021-12-13 15:59:28 星期一]
收到来自串口：COM1的报文：
01 03 00 00 00 0a c5 cd 

[2021-12-13 15:59:28 星期一]
请求报文解析成功！
已向主机发送响应报文：01 03 14 00 00 00 00 00 00 00 00 00 00 00 00 00 00 00 00 00 00 00 00 a3 67 

[2021-12-13 15:59:29 星期一]
收到来自串口：COM1的报文：
01 03 00 00 00 0a c5 cd 

[2021-12-13 15:59:29 星期一]
请求报文解析成功！
已向主机发送响应报文：01 03 14 00 00 00 00 00 00 00 00 00 00 00 00 00 00 00 00 00 00 00 00 a3 67 

[2021-12-13 15:59:30 星期一]
收到来自串口：COM1的报文：
01 03 00 00 00 0a c5 cd 

[2021-12-13 15:59:30 星期一]
请求报文解析成功！
已向主机发送响应报文：01 03 14 00 00 00 00 00 00 00 00 00 00 00 00 00 00 00 00 00 00 00 00 a3 67 

[2021-12-13 15:59:31 星期一]
收到来自串口：COM1的报文：
01 03 00 00 00 0a c5 cd 

[2021-12-13 15:59:31 星期一]
请求报文解析成功！
已向主机发送响应报文：01 03 14 00 00 00 00 00 00 00 00 00 00 00 00 00 00 00 00 00 00 00 00 a3 67 

[2021-12-13 15:59:32 星期一]
收到来自串口：COM1的报文：
01 03 00 00 00 0a c5 cd 

[2021-12-13 15:59:32 星期一]
请求报文解析成功！
已向主机发送响应报文：01 03 14 00 00 00 00 00 00 00 00 00 00 00 00 00 00 00 00 00 00 00 00 a3 67 

[2021-12-13 15:59:33 星期一]
收到来自串口：COM1的报文：
01 03 00 00 00 0a c5 cd 

[2021-12-13 15:59:33 星期一]
请求报文解析成功！
已向主机发送响应报文：01 03 14 00 00 00 00 00 00 00 00 00 00 00 00 00 00 00 00 00 00 00 00 a3 67 

[2021-12-13 15:59:34 星期一]
收到来自串口：COM1的报文：
01 03 00 00 00 0a c5 cd 

[2021-12-13 15:59:34 星期一]
请求报文解析成功！
已向主机发送响应报文：01 03 14 00 00 00 00 00 00 00 00 00 00 00 00 00 00 00 00 00 00 00 00 a3 67 

[2021-12-13 15:59:35 星期一]
收到来自串口：COM1的报文：
01 03 00 00 00 0a c5 cd 

[2021-12-13 15:59:35 星期一]
请求报文解析成功！
已向主机发送响应报文：01 03 14 00 00 00 00 00 00 00 00 00 00 00 00 00 00 00 00 00 00 00 00 a3 67 

[2021-12-13 15:59:36 星期一]
收到来自串口：COM1的报文：
01 03 00 00 00 0a c5 cd 

[2021-12-13 15:59:36 星期一]
请求报文解析成功！
已向主机发送响应报文：01 03 14 00 00 00 00 00 00 00 00 00 00 00 00 00 00 00 00 00 00 00 00 a3 67 

[2021-12-13 15:59:37 星期一]
收到来自串口：COM1的报文：
01 03 00 00 00 0a c5 cd 

[2021-12-13 15:59:37 星期一]
请求报文解析成功！
已向主机发送响应报文：01 03 14 00 00 00 00 00 00 00 00 00 00 00 00 00 00 00 00 00 00 00 00 a3 67 

[2021-12-13 15:59:38 星期一]
收到来自串口：COM1的报文：
01 03 00 00 00 0a c5 cd 

[2021-12-13 15:59:38 星期一]
请求报文解析成功！
已向主机发送响应报文：01 03 14 00 00 00 00 00 00 00 00 00 00 00 00 00 00 00 00 00 00 00 00 a3 67 

[2021-12-13 15:59:39 星期一]
收到来自串口：COM1的报文：
01 03 00 00 00 0a c5 cd 

[2021-12-13 15:59:39 星期一]
请求报文解析成功！
已向主机发送响应报文：01 03 14 00 00 00 00 00 00 00 00 00 00 00 00 00 00 00 00 00 00 00 00 a3 67 

[2021-12-13 15:59:40 星期一]
收到来自串口：COM1的报文：
01 03 00 00 00 0a c5 cd 

[2021-12-13 15:59:40 星期一]
请求报文解析成功！
已向主机发送响应报文：01 03 14 00 00 00 00 00 00 00 00 00 00 00 00 00 00 00 00 00 00 00 00 a3 67 

[2021-12-13 15:59:41 星期一]
收到来自串口：COM1的报文：
01 03 00 00 00 0a c5 cd 

[2021-12-13 15:59:41 星期一]
请求报文解析成功！
已向主机发送响应报文：01 03 14 00 00 00 00 00 00 00 00 00 00 00 00 00 00 00 00 00 00 00 00 a3 67 

[2021-12-13 15:59:42 星期一]
收到来自串口：COM1的报文：
01 06 00 00 00 01 48 0a 
非法功能码！
已向主机发送异常响应报文：01 86 01 83 a0 

[2021-12-13 15:59:42 星期一]
收到来自串口：COM1的报文：
01 03 00 00 00 0a c5 cd 

[2021-12-13 15:59:42 星期一]
请求报文解析成功！
已向主机发送响应报文：01 03 14 00 00 00 00 00 00 00 00 00 00 00 00 00 00 00 00 00 00 00 00 a3 67 

[2021-12-13 15:59:43 星期一]
收到来自串口：COM1的报文：
01 03 00 00 00 0a c5 cd 

[2021-12-13 15:59:43 星期一]
请求报文解析成功！
已向主机发送响应报文：01 03 14 00 00 00 00 00 00 00 00 00 00 00 00 00 00 00 00 00 00 00 00 a3 67 

[2021-12-13 15:59:44 星期一]
收到来自串口：COM1的报文：
01 03 00 00 00 0a c5 cd 

[2021-12-13 15:59:44 星期一]
请求报文解析成功！
已向主机发送响应报文：01 03 14 00 00 00 00 00 00 00 00 00 00 00 00 00 00 00 00 00 00 00 00 a3 67 

[2021-12-13 15:59:45 星期一]
收到来自串口：COM1的报文：
01 03 00 00 00 0a c5 cd 

[2021-12-13 15:59:45 星期一]
请求报文解析成功！
已向主机发送响应报文：01 03 14 00 00 00 00 00 00 00 00 00 00 00 00 00 00 00 00 00 00 00 00 a3 67 

[2021-12-13 15:59:46 星期一]
收到来自串口：COM1的报文：
01 03 00 00 00 0a c5 cd 

[2021-12-13 15:59:46 星期一]
请求报文解析成功！
已向主机发送响应报文：01 03 14 00 00 00 00 00 00 00 00 00 00 00 00 00 00 00 00 00 00 00 00 a3 67 

[2021-12-13 15:59:47 星期一]
收到来自串口：COM1的报文：
01 03 00 00 00 0a c5 cd 

[2021-12-13 15:59:47 星期一]
请求报文解析成功！
已向主机发送响应报文：01 03 14 00 00 00 00 00 00 00 00 00 00 00 00 00 00 00 00 00 00 00 00 a3 67 

[2021-12-13 15:59:48 星期一]
收到来自串口：COM1的报文：
01 03 00 00 00 0a c5 cd 

[2021-12-13 15:59:48 星期一]
请求报文解析成功！
已向主机发送响应报文：01 03 14 00 00 00 00 00 00 00 00 00 00 00 00 00 00 00 00 00 00 00 00 a3 67 

[2021-12-13 15:59:49 星期一]
收到来自串口：COM1的报文：
01 03 00 00 00 0a c5 cd 

[2021-12-13 15:59:49 星期一]
请求报文解析成功！
已向主机发送响应报文：01 03 14 00 00 00 00 00 00 00 00 00 00 00 00 00 00 00 00 00 00 00 00 a3 67 

[2021-12-13 15:59:50 星期一]
收到来自串口：COM1的报文：
01 03 00 00 00 0a c5 cd 

[2021-12-13 15:59:50 星期一]
请求报文解析成功！
已向主机发送响应报文：01 03 14 00 00 00 00 00 00 00 00 00 00 00 00 00 00 00 00 00 00 00 00 a3 67 

[2021-12-13 15:59:51 星期一]
收到来自串口：COM1的报文：
01 03 00 00 00 0a c5 cd 

[2021-12-13 15:59:51 星期一]
请求报文解析成功！
已向主机发送响应报文：01 03 14 00 00 00 00 00 00 00 00 00 00 00 00 00 00 00 00 00 00 00 00 a3 67 

[2021-12-13 15:59:52 星期一]
收到来自串口：COM1的报文：
01 03 00 00 00 0a c5 cd 

[2021-12-13 15:59:52 星期一]
请求报文解析成功！
已向主机发送响应报文：01 03 14 00 00 00 00 00 00 00 00 00 00 00 00 00 00 00 00 00 00 00 00 a3 67 

[2021-12-13 15:59:53 星期一]
收到来自串口：COM1的报文：
01 03 00 00 00 0a c5 cd 

[2021-12-13 15:59:53 星期一]
请求报文解析成功！
已向主机发送响应报文：01 03 14 00 00 00 00 00 00 00 00 00 00 00 00 00 00 00 00 00 00 00 00 a3 67 

[2021-12-13 15:59:54 星期一]
收到来自串口：COM1的报文：
01 03 00 00 00 0a c5 cd 

[2021-12-13 15:59:54 星期一]
请求报文解析成功！
已向主机发送响应报文：01 03 14 00 00 00 00 00 00 00 00 00 00 00 00 00 00 00 00 00 00 00 00 a3 67 

[2021-12-13 15:59:55 星期一]
收到来自串口：COM1的报文：
01 03 00 00 00 0a c5 cd 

[2021-12-13 15:59:55 星期一]
请求报文解析成功！
已向主机发送响应报文：01 03 14 00 00 00 00 00 00 00 00 00 00 00 00 00 00 00 00 00 00 00 00 a3 67 

[2021-12-13 15:59:56 星期一]
收到来自串口：COM1的报文：
01 03 00 00 00 0a c5 cd 

[2021-12-13 15:59:56 星期一]
请求报文解析成功！
已向主机发送响应报文：01 03 14 00 00 00 00 00 00 00 00 00 00 00 00 00 00 00 00 00 00 00 00 a3 67 

[2021-12-13 15:59:57 星期一]
收到来自串口：COM1的报文：
01 03 00 00 00 0a c5 cd 

[2021-12-13 15:59:57 星期一]
请求报文解析成功！
已向主机发送响应报文：01 03 14 00 00 00 00 00 00 00 00 00 00 00 00 00 00 00 00 00 00 00 00 a3 67 

[2021-12-13 15:59:58 星期一]
收到来自串口：COM1的报文：
01 03 00 00 00 0a c5 cd 

[2021-12-13 15:59:58 星期一]
请求报文解析成功！
已向主机发送响应报文：01 03 14 00 00 00 00 00 00 00 00 00 00 00 00 00 00 00 00 00 00 00 00 a3 67 

[2021-12-13 15:59:59 星期一]
收到来自串口：COM1的报文：
01 03 00 00 00 0a c5 cd 

[2021-12-13 15:59:59 星期一]
请求报文解析成功！
已向主机发送响应报文：01 03 14 00 00 00 00 00 00 00 00 00 00 00 00 00 00 00 00 00 00 00 00 a3 67 

[2021-12-13 16:00:00 星期一]
收到来自串口：COM1的报文：
01 03 00 00 00 0a c5 cd 

[2021-12-13 16:00:00 星期一]
请求报文解析成功！
已向主机发送响应报文：01 03 14 00 00 00 00 00 00 00 00 00 00 00 00 00 00 00 00 00 00 00 00 a3 67 

[2021-12-13 16:00:01 星期一]
收到来自串口：COM1的报文：
01 03 00 00 00 0a c5 cd 

[2021-12-13 16:00:01 星期一]
请求报文解析成功！
已向主机发送响应报文：01 03 14 00 00 00 00 00 00 00 00 00 00 00 00 00 00 00 00 00 00 00 00 a3 67 

[2021-12-13 16:00:02 星期一]
收到来自串口：COM1的报文：
01 06 00 00 00 01 48 0a 
非法功能码！
已向主机发送异常响应报文：01 86 01 83 a0 

[2021-12-13 16:00:03 星期一]
收到来自串口：COM1的报文：
01 03 00 00 00 0a c5 cd 

[2021-12-13 16:00:03 星期一]
请求报文解析成功！
已向主机发送响应报文：01 03 14 00 00 00 00 00 00 00 00 00 00 00 00 00 00 00 00 00 00 00 00 a3 67 

[2021-12-13 16:00:04 星期一]
收到来自串口：COM1的报文：
01 03 00 00 00 0a c5 cd 

[2021-12-13 16:00:04 星期一]
请求报文解析成功！
已向主机发送响应报文：01 03 14 00 00 00 00 00 00 00 00 00 00 00 00 00 00 00 00 00 00 00 00 a3 67 

[2021-12-13 16:00:05 星期一]
收到来自串口：COM1的报文：
01 03 00 00 00 0a c5 cd 

[2021-12-13 16:00:05 星期一]
请求报文解析成功！
已向主机发送响应报文：01 03 14 00 00 00 00 00 00 00 00 00 00 00 00 00 00 00 00 00 00 00 00 a3 67 

[2021-12-13 16:00:06 星期一]
收到来自串口：COM1的报文：
01 03 00 00 00 0a c5 cd 

[2021-12-13 16:00:06 星期一]
请求报文解析成功！
已向主机发送响应报文：01 03 14 00 00 00 00 00 00 00 00 00 00 00 00 00 00 00 00 00 00 00 00 a3 67 

[2021-12-13 16:00:07 星期一]
收到来自串口：COM1的报文：
01 03 00 00 00 0a c5 cd 

[2021-12-13 16:00:07 星期一]
请求报文解析成功！
已向主机发送响应报文：01 03 14 00 00 00 00 00 00 00 00 00 00 00 00 00 00 00 00 00 00 00 00 a3 67 

[2021-12-13 16:00:08 星期一]
收到来自串口：COM1的报文：
01 03 00 00 00 0a c5 cd 

[2021-12-13 16:00:08 星期一]
请求报文解析成功！
已向主机发送响应报文：01 03 14 00 00 00 00 00 00 00 00 00 00 00 00 00 00 00 00 00 00 00 00 a3 67 

[2021-12-13 16:00:09 星期一]
收到来自串口：COM1的报文：
01 03 00 00 00 0a c5 cd 

[2021-12-13 16:00:09 星期一]
请求报文解析成功！
已向主机发送响应报文：01 03 14 00 00 00 00 00 00 00 00 00 00 00 00 00 00 00 00 00 00 00 00 a3 67 

[2021-12-13 16:00:10 星期一]
收到来自串口：COM1的报文：
01 03 00 00 00 0a c5 cd 

[2021-12-13 16:00:10 星期一]
请求报文解析成功！
已向主机发送响应报文：01 03 14 00 00 00 00 00 00 00 00 00 00 00 00 00 00 00 00 00 00 00 00 a3 67 

[2021-12-13 16:00:11 星期一]
收到来自串口：COM1的报文：
01 03 00 00 00 0a c5 cd 

[2021-12-13 16:00:11 星期一]
请求报文解析成功！
已向主机发送响应报文：01 03 14 00 00 00 00 00 00 00 00 00 00 00 00 00 00 00 00 00 00 00 00 a3 67 

[2021-12-13 16:00:12 星期一]
收到来自串口：COM1的报文：
01 03 00 00 00 0a c5 cd 

[2021-12-13 16:00:12 星期一]
请求报文解析成功！
已向主机发送响应报文：01 03 14 00 00 00 00 00 00 00 00 00 00 00 00 00 00 00 00 00 00 00 00 a3 67 

[2021-12-13 16:00:13 星期一]
收到来自串口：COM1的报文：
01 03 00 00 00 0a c5 cd 

[2021-12-13 16:00:13 星期一]
请求报文解析成功！
已向主机发送响应报文：01 03 14 00 00 00 00 00 00 00 00 00 00 00 00 00 00 00 00 00 00 00 00 a3 67 

[2021-12-13 16:00:14 星期一]
收到来自串口：COM1的报文：
01 03 00 00 00 0a c5 cd 

[2021-12-13 16:00:14 星期一]
请求报文解析成功！
已向主机发送响应报文：01 03 14 00 00 00 00 00 00 00 00 00 00 00 00 00 00 00 00 00 00 00 00 a3 67 

[2021-12-13 16:00:15 星期一]
收到来自串口：COM1的报文：
01 03 00 00 00 0a c5 cd 

[2021-12-13 16:00:15 星期一]
请求报文解析成功！
已向主机发送响应报文：01 03 14 00 00 00 00 00 00 00 00 00 00 00 00 00 00 00 00 00 00 00 00 a3 67 

[2021-12-13 16:00:16 星期一]
收到来自串口：COM1的报文：
01 03 00 00 00 0a c5 cd 

[2021-12-13 16:00:16 星期一]
请求报文解析成功！
已向主机发送响应报文：01 03 14 00 00 00 00 00 00 00 00 00 00 00 00 00 00 00 00 00 00 00 00 a3 67 

[2021-12-13 16:00:17 星期一]
收到来自串口：COM1的报文：
01 03 00 00 00 0a c5 cd 

[2021-12-13 16:00:17 星期一]
请求报文解析成功！
已向主机发送响应报文：01 03 14 00 00 00 00 00 00 00 00 00 00 00 00 00 00 00 00 00 00 00 00 a3 67 

[2021-12-13 16:00:18 星期一]
收到来自串口：COM1的报文：
01 03 00 00 00 0a c5 cd 

[2021-12-13 16:00:18 星期一]
请求报文解析成功！
已向主机发送响应报文：01 03 14 00 00 00 00 00 00 00 00 00 00 00 00 00 00 00 00 00 00 00 00 a3 67 

[2021-12-13 16:00:19 星期一]
收到来自串口：COM1的报文：
01 03 00 00 00 0a c5 cd 

[2021-12-13 16:00:19 星期一]
请求报文解析成功！
已向主机发送响应报文：01 03 14 00 00 00 00 00 00 00 00 00 00 00 00 00 00 00 00 00 00 00 00 a3 67 

[2021-12-13 16:00:20 星期一]
收到来自串口：COM1的报文：
01 03 00 00 00 0a c5 cd 

[2021-12-13 16:00:20 星期一]
请求报文解析成功！
已向主机发送响应报文：01 03 14 00 00 00 00 00 00 00 00 00 00 00 00 00 00 00 00 00 00 00 00 a3 67 

[2021-12-13 16:00:21 星期一]
收到来自串口：COM1的报文：
01 03 00 00 00 0a c5 cd 

[2021-12-13 16:00:21 星期一]
请求报文解析成功！
已向主机发送响应报文：01 03 14 00 00 00 00 00 00 00 00 00 00 00 00 00 00 00 00 00 00 00 00 a3 67 

[2021-12-13 16:00:22 星期一]
收到来自串口：COM1的报文：
01 03 00 00 00 0a c5 cd 

[2021-12-13 16:00:22 星期一]
请求报文解析成功！
已向主机发送响应报文：01 03 14 00 00 00 00 00 00 00 00 00 00 00 00 00 00 00 00 00 00 00 00 a3 67 

[2021-12-13 16:00:23 星期一]
收到来自串口：COM1的报文：
01 03 00 00 00 0a c5 cd 

[2021-12-13 16:00:23 星期一]
请求报文解析成功！
已向主机发送响应报文：01 03 14 00 00 00 00 00 00 00 00 00 00 00 00 00 00 00 00 00 00 00 00 a3 67 

[2021-12-13 16:00:24 星期一]
收到来自串口：COM1的报文：
01 03 00 00 00 0a c5 cd 

[2021-12-13 16:00:24 星期一]
请求报文解析成功！
已向主机发送响应报文：01 03 14 00 00 00 00 00 00 00 00 00 00 00 00 00 00 00 00 00 00 00 00 a3 67 

[2021-12-13 16:00:25 星期一]
收到来自串口：COM1的报文：
01 03 00 00 00 0a c5 cd 

[2021-12-13 16:00:25 星期一]
请求报文解析成功！
已向主机发送响应报文：01 03 14 00 00 00 00 00 00 00 00 00 00 00 00 00 00 00 00 00 00 00 00 a3 67 

[2021-12-13 16:00:26 星期一]
收到来自串口：COM1的报文：
01 03 00 00 00 0a c5 cd 

[2021-12-13 16:00:26 星期一]
请求报文解析成功！
已向主机发送响应报文：01 03 14 00 00 00 00 00 00 00 00 00 00 00 00 00 00 00 00 00 00 00 00 a3 67 

[2021-12-13 16:00:27 星期一]
收到来自串口：COM1的报文：
01 03 00 00 00 0a c5 cd 

[2021-12-13 16:00:27 星期一]
请求报文解析成功！
已向主机发送响应报文：01 03 14 00 00 00 00 00 00 00 00 00 00 00 00 00 00 00 00 00 00 00 00 a3 67 

[2021-12-13 16:00:28 星期一]
收到来自串口：COM1的报文：
01 03 00 00 00 0a c5 cd 

[2021-12-13 16:00:28 星期一]
请求报文解析成功！
已向主机发送响应报文：01 03 14 00 00 00 00 00 00 00 00 00 00 00 00 00 00 00 00 00 00 00 00 a3 67 

[2021-12-13 16:00:29 星期一]
收到来自串口：COM1的报文：
01 03 00 00 00 0a c5 cd 

[2021-12-13 16:00:29 星期一]
请求报文解析成功！
已向主机发送响应报文：01 03 14 00 00 00 00 00 00 00 00 00 00 00 00 00 00 00 00 00 00 00 00 a3 67 

[2021-12-13 16:00:30 星期一]
收到来自串口：COM1的报文：
01 03 00 00 00 0a c5 cd 

[2021-12-13 16:00:30 星期一]
请求报文解析成功！
已向主机发送响应报文：01 03 14 00 00 00 00 00 00 00 00 00 00 00 00 00 00 00 00 00 00 00 00 a3 67 

[2021-12-13 16:00:31 星期一]
收到来自串口：COM1的报文：
01 03 00 00 00 0a c5 cd 

[2021-12-13 16:00:31 星期一]
请求报文解析成功！
已向主机发送响应报文：01 03 14 00 00 00 00 00 00 00 00 00 00 00 00 00 00 00 00 00 00 00 00 a3 67 

[2021-12-13 16:00:32 星期一]
收到来自串口：COM1的报文：
01 03 00 00 00 0a c5 cd 

[2021-12-13 16:00:32 星期一]
请求报文解析成功！
已向主机发送响应报文：01 03 14 00 00 00 00 00 00 00 00 00 00 00 00 00 00 00 00 00 00 00 00 a3 67 

[2021-12-13 16:00:33 星期一]
收到来自串口：COM1的报文：
01 03 00 00 00 0a c5 cd 

[2021-12-13 16:00:33 星期一]
请求报文解析成功！
已向主机发送响应报文：01 03 14 00 00 00 00 00 00 00 00 00 00 00 00 00 00 00 00 00 00 00 00 a3 67 

[2021-12-13 16:00:34 星期一]
收到来自串口：COM1的报文：
01 03 00 00 00 0a c5 cd 

[2021-12-13 16:00:34 星期一]
请求报文解析成功！
已向主机发送响应报文：01 03 14 00 00 00 00 00 00 00 00 00 00 00 00 00 00 00 00 00 00 00 00 a3 67 

[2021-12-13 16:00:35 星期一]
收到来自串口：COM1的报文：
01 03 00 00 00 0a c5 cd 

[2021-12-13 16:00:35 星期一]
请求报文解析成功！
已向主机发送响应报文：01 03 14 00 00 00 00 00 00 00 00 00 00 00 00 00 00 00 00 00 00 00 00 a3 67 

[2021-12-13 16:00:35 星期一]
收到来自串口：COM1的报文：
01 01 00 00 00 0a bc 0d 

[2021-12-13 16:00:35 星期一]
请求报文解析成功！
已向主机发送响应报文：01 01 02 a0 00 c1 fc 

[2021-12-13 16:00:36 星期一]
收到来自串口：COM1的报文：
01 01 00 00 00 0a bc 0d 

[2021-12-13 16:00:36 星期一]
请求报文解析成功！
已向主机发送响应报文：01 01 02 a0 00 c1 fc 

[2021-12-13 16:00:37 星期一]
收到来自串口：COM1的报文：
01 01 00 00 00 0a bc 0d 

[2021-12-13 16:00:37 星期一]
请求报文解析成功！
已向主机发送响应报文：01 01 02 a0 00 c1 fc 

[2021-12-13 16:00:38 星期一]
收到来自串口：COM1的报文：
01 01 00 00 00 0a bc 0d 

[2021-12-13 16:00:38 星期一]
请求报文解析成功！
已向主机发送响应报文：01 01 02 a0 00 c1 fc 

[2021-12-13 16:00:39 星期一]
收到来自串口：COM1的报文：
01 01 00 00 00 0a bc 0d 

[2021-12-13 16:00:39 星期一]
请求报文解析成功！
已向主机发送响应报文：01 01 02 a0 00 c1 fc 

[2021-12-13 16:00:40 星期一]
收到来自串口：COM1的报文：
01 01 00 00 00 0a bc 0d 

[2021-12-13 16:00:40 星期一]
请求报文解析成功！
已向主机发送响应报文：01 01 02 a0 00 c1 fc 

[2021-12-13 16:00:41 星期一]
收到来自串口：COM1的报文：
01 01 00 00 00 0a bc 0d 

[2021-12-13 16:00:41 星期一]
请求报文解析成功！
已向主机发送响应报文：01 01 02 a0 00 c1 fc 

[2021-12-13 16:00:42 星期一]
收到来自串口：COM1的报文：
01 01 00 00 00 0a bc 0d 

[2021-12-13 16:00:42 星期一]
请求报文解析成功！
已向主机发送响应报文：01 01 02 a0 00 c1 fc 

[2021-12-13 16:00:43 星期一]
收到来自串口：COM1的报文：
01 05 00 00 ff 00 8c 3a 
非法功能码！
已向主机发送异常响应报文：01 85 01 83 50 

[2021-12-13 16:00:44 星期一]
收到来自串口：COM1的报文：
01 01 00 00 00 0a bc 0d 

[2021-12-13 16:00:44 星期一]
请求报文解析成功！
已向主机发送响应报文：01 01 02 a0 00 c1 fc 

[2021-12-13 16:00:45 星期一]
收到来自串口：COM1的报文：
01 01 00 00 00 0a bc 0d 

[2021-12-13 16:00:45 星期一]
请求报文解析成功！
已向主机发送响应报文：01 01 02 a0 00 c1 fc 

[2021-12-13 16:00:46 星期一]
收到来自串口：COM1的报文：
01 01 00 00 00 0a bc 0d 

[2021-12-13 16:00:46 星期一]
请求报文解析成功！
已向主机发送响应报文：01 01 02 a0 00 c1 fc 

[2021-12-13 16:00:47 星期一]
收到来自串口：COM1的报文：
01 01 00 00 00 0a bc 0d 

[2021-12-13 16:00:47 星期一]
请求报文解析成功！
已向主机发送响应报文：01 01 02 a0 00 c1 fc 

[2021-12-13 16:00:48 星期一]
收到来自串口：COM1的报文：
01 01 00 00 00 0a bc 0d 

[2021-12-13 16:00:48 星期一]
请求报文解析成功！
已向主机发送响应报文：01 01 02 a0 00 c1 fc 

[2021-12-13 16:00:49 星期一]
收到来自串口：COM1的报文：
01 01 00 00 00 0a bc 0d 

[2021-12-13 16:00:49 星期一]
请求报文解析成功！
已向主机发送响应报文：01 01 02 a0 00 c1 fc 

[2021-12-13 16:00:50 星期一]
收到来自串口：COM1的报文：
01 01 00 00 00 0a bc 0d 

[2021-12-13 16:00:50 星期一]
请求报文解析成功！
已向主机发送响应报文：01 01 02 a0 00 c1 fc 

[2021-12-13 16:00:51 星期一]
收到来自串口：COM1的报文：
01 01 00 00 00 0a bc 0d 

[2021-12-13 16:00:51 星期一]
请求报文解析成功！
已向主机发送响应报文：01 01 02 a0 00 c1 fc 

[2021-12-13 16:00:52 星期一]
收到来自串口：COM1的报文：
01 01 00 00 00 0a bc 0d 

[2021-12-13 16:00:52 星期一]
请求报文解析成功！
已向主机发送响应报文：01 01 02 a0 00 c1 fc 

[2021-12-13 16:00:53 星期一]
收到来自串口：COM1的报文：
01 01 00 00 00 0a bc 0d 

[2021-12-13 16:00:53 星期一]
请求报文解析成功！
已向主机发送响应报文：01 01 02 a0 00 c1 fc 

[2021-12-13 16:00:54 星期一]
收到来自串口：COM1的报文：
01 01 00 00 00 0a bc 0d 

[2021-12-13 16:00:54 星期一]
请求报文解析成功！
已向主机发送响应报文：01 01 02 a0 00 c1 fc 

[2021-12-13 16:00:55 星期一]
收到来自串口：COM1的报文：
01 01 00 00 00 0a bc 0d 

[2021-12-13 16:00:55 星期一]
请求报文解析成功！
已向主机发送响应报文：01 01 02 a0 00 c1 fc 

[2021-12-13 16:00:56 星期一]
收到来自串口：COM1的报文：
01 01 00 00 00 0a bc 0d 

[2021-12-13 16:00:56 星期一]
请求报文解析成功！
