[2021-07-28 12:15:01]
无文件路径!，请先选择路径进行保存！
[2021-07-28 12:15:31]
文件路径设置成功!
[2021-07-28 12:16:23]
清除消息窗口！

[2021-07-28 12:16:24]
保存至路径：F:/Trainning_Camp/2021_07_20/ModBus_RTU_slaver/build-ModBus_RTU_slaver-Desktop_Qt_5_4_0_MinGW_32bit-Debug/messagehistory.txt
文件名称：messagehistory.txt
文件大小：0
创建日期：2021-07-28 12:15:12
最后保存日期：2021-07-28 12:15:14

[2021-07-28 12:16:27]
关闭应用程序！

[2021-07-31 12:36:30]
无文件路径!，请先选择路径进行保存！
[2021-07-31 12:36:36]
文件路径设置成功!
[2021-07-31 12:36:48]
清除消息窗口！

[2021-07-31 12:36:48]
保存至路径：F:/Trainning_Camp/2021_07_20/ModBus_RTU_slaver/build-ModBus_RTU_slaver-Desktop_Qt_5_4_0_MinGW_32bit-Debug/messagehistory.txt
文件名称：messagehistory.txt
文件大小：506
创建日期：2021-07-28 12:15:12
最后保存日期：2021-07-28 12:16:28

[2021-07-31 12:37:32]
关闭应用程序！

[2021-07-31 12:39:46]
关闭应用程序！
[2021-07-31 12:39:49]
文件路径设置成功!

[2021-07-31 12:41:11]
关闭应用程序！
[2021-07-31 12:41:16]
文件路径设置成功!

[2021-07-31 13:46:09]
成功打开串口! 串口号：COM2
[2021-07-31 13:46:14]
收到来自串口：COM2的报文：
01 10 00 00 00 01 02 02 02 26 f1 
该报文CRC校验出错！
[2021-07-31 13:47:25]
收到来自串口：COM2的报文：
01 10 00 00 00 01 02 02 02 26 f1 
该报文CRC校验出错！
[2021-07-31 13:50:24]
关闭应用程序！
[2021-07-31 13:50:29]
文件路径设置成功!

[2021-08-02 10:05:30]
成功打开串口! 串口号：COM2

[2021-08-02 10:05:32]
收到来自串口：COM2的报文：
01 10 00 00 
报文长度不合法！

[2021-08-02 10:05:42]
收到来自串口：COM2的报文：
01 10 
报文长度不合法！

[2021-08-02 10:05:58]
收到来自串口：COM2的报文：
01 
报文长度不合法！

[2021-08-02 10:06:19]
收到来自串口：COM2的报文：
01 10 00 00 00 01 02 02 02 d6 f1 
该报文CRC校验出错！

[2021-08-02 10:06:28]
收到来自串口：COM2的报文：
02 10 00 00 00 01 02 02 02 32 01 
收到的报文目的地址不是本机！

[2021-08-02 10:06:47]
收到来自串口：COM2的报文：
01 0f 00 00 00 01 01 01 ef 57 

[2021-08-02 10:06:47]
请求报文解析成功！
已向主机发送响应报文：01 0f 00 00 31 db 

[2021-08-02 10:08:50]
清除消息窗口！

[2021-08-02 10:08:53]
文件路径设置成功!

[2021-08-02 10:52:13]
成功打开串口! 串口号：COM2

[2021-08-02 10:52:15]
收到来自串口：COM2的报文：
01 10 00 00 00 01 02 02 02 26 f1 

[2021-08-02 10:52:15]
请求报文解析成功！
已向主机发送响应报文：01 10 00 00 00 01 01 c9 

[2021-08-02 10:54:14]
收到来自串口：COM2的报文：
01 0f 00 00 00 01 01 01 ef 57 

[2021-08-02 10:54:14]
请求报文解析成功！
已向主机发送响应报文：01 0f 00 00 00 01 31 db 

[2021-08-02 10:54:43]
收到来自串口：COM2的报文：
01 10 00 00 00 01 02 02 02 26 f1 

[2021-08-02 10:54:43]
请求报文解析成功！
已向主机发送响应报文：01 10 00 00 00 01 01 c9 

[2021-08-02 10:54:55]
收到来自串口：COM2的报文：
01 10 27 0f 00 01 02 02 02 71 0c 

[2021-08-02 10:54:55]
请求报文解析成功！
已向主机发送响应报文：01 10 27 0f 00 01 3b 7e 

[2021-08-02 10:55:17]
收到来自串口：COM2的报文：
01 10 00 00 00 7b f6 10 10 00 10 00 00 00 00 00 00 00 00 00 00 00 00 00 00 00 00 00 00 00 00 00 00 00 00 00 00 00 00 00 00 00 00 00 00 00 00 00 00 00 00 00 00 00 00 00 00 00 00 00 00 00 00 00 00 00 00 00 00 00 00 00 00 00 00 00 00 00 00 00 00 00 00 00 00 00 00 00 00 00 00 00 00 00 00 00 00 00 00 00 00 00 00 00 00 00 00 00 00 00 00 00 00 00 00 00 00 00 00 00 00 00 00 00 00 00 00 00 00 00 00 00 00 00 00 00 00 00 00 00 00 00 00 00 00 00 00 00 00 00 00 00 00 00 00 00 00 00 00 00 00 00 00 00 00 00 00 00 00 00 00 00 00 00 00 00 00 00 00 00 00 00 00 00 00 00 00 00 00 00 00 00 00 00 00 00 00 00 00 00 00 00 00 00 00 00 00 00 00 00 00 00 00 00 00 00 00 00 00 00 00 00 00 00 00 00 00 00 00 00 00 00 00 00 00 00 00 00 00 00 00 00 00 00 00 00 00 00 00 00 01 01 01 45 5d 

[2021-08-02 10:55:17]
请求报文解析成功！
已向主机发送响应报文：01 10 00 00 00 7b 80 2a 

[2021-08-02 10:55:33]
收到来自串口：COM2的报文：
01 10 00 00 00 00 00 09 50 
该请求报文的数量字节不合法！
已向主机发送异常响应报文：01 90 03 0c 01 

[2021-08-02 10:55:50]
收到来自串口：COM2的报文：
01 10 00 00 00 01 01 02 02 d6 f1 
该请求报文的字节字段不合法！
已向主机发送异常响应报文：01 90 03 0c 01 

[2021-08-02 10:56:04]
收到来自串口：COM2的报文：
01 0f 00 00 00 01 01 01 ef 57 

[2021-08-02 10:56:04]
请求报文解析成功！
已向主机发送响应报文：01 0f 00 00 00 01 31 db 

[2021-08-02 10:57:24]
清除消息窗口！

[2021-08-02 10:57:28]
文件路径设置成功!

[2021-08-02 11:13:17]
成功打开串口! 串口号：COM2

[2021-08-02 11:13:19]
收到来自串口：COM2的报文：
01 0f 00 00 07 b0 f6 a0 00 00 00 00 00 00 00 00 00 00 00 00 00 00 00 00 00 00 00 00 00 00 00 00 00 00 00 00 00 00 00 00 00 00 00 00 00 00 10 00 00 00 00 00 00 00 00 00 00 00 00 00 00 00 00 00 00 00 00 00 00 00 00 00 00 01 00 00 00 00 00 00 00 00 00 00 00 00 00 00 00 00 00 00 00 00 00 00 00 00 00 00 00 00 00 00 00 00 00 00 00 00 00 00 00 00 00 00 00 00 00 00 00 00 00 00 00 00 00 00 00 00 00 00 00 00 00 00 00 00 00 00 00 00 00 00 00 00 00 00 00 00 00 00 00 00 00 00 00 00 00 00 00 00 00 00 00 00 00 00 00 00 00 00 00 00 00 00 00 00 00 00 00 00 00 00 00 00 00 00 00 00 00 00 00 00 00 00 00 00 00 00 00 00 00 00 00 00 00 00 00 00 00 00 00 00 00 00 00 00 00 00 00 00 00 00 00 00 00 00 00 00 00 00 00 00 00 00 00 00 00 00 b1 00 00 00 00 00 00 00 00 a0 a0 a0 11 b8 25 

[2021-08-02 11:13:19]
请求报文解析成功！
已向主机发送响应报文：01 0f 00 00 07 b0 56 4f 

[2021-08-02 11:13:49]
收到来自串口：COM2的报文：
01 0f 00 00 07 b1 f7 a0 00 00 00 00 00 00 00 00 00 00 00 00 00 00 00 00 00 00 00 00 00 00 00 00 00 00 00 00 00 00 00 00 00 00 00 00 00 00 10 00 00 00 00 00 00 00 00 00 00 00 00 00 00 00 00 00 00 00 00 00 00 00 00 00 00 01 00 00 00 00 00 00 00 00 00 00 00 00 00 00 00 00 00 00 00 00 00 00 00 00 00 00 00 00 00 00 00 00 00 00 00 00 00 00 00 00 00 00 00 00 00 00 00 00 00 00 00 00 00 00 00 00 00 00 00 00 00 00 00 00 00 00 00 00 00 00 00 00 00 00 00 00 00 00 00 00 00 00 00 00 00 00 00 00 00 00 00 00 00 00 00 00 00 00 00 00 00 00 00 00 00 00 00 00 00 00 00 00 00 00 00 00 00 00 00 00 00 00 00 00 00 00 00 00 00 00 00 00 00 00 00 00 00 00 00 00 00 00 00 00 00 00 00 00 00 00 00 00 00 00 00 00 00 00 00 00 00 00 00 00 00 00 b1 00 00 00 00 00 00 00 00 a0 a0 a0 11 00 e0 42 
该请求报文的数量字节不合法！
已向主机发送异常响应报文：01 8f 03 04 31 

[2021-08-02 11:14:12]
收到来自串口：COM2的报文：
01 0f 00 00 00 00 00 0b 3f 
该请求报文的数量字节不合法！
已向主机发送异常响应报文：01 8f 03 04 31 

[2021-08-02 11:14:28]
收到来自串口：COM2的报文：
01 0f 27 0f 00 02 01 03 cc 40 
该请求报文的请求无法满足！
已向主机发送异常响应报文：01 8f 02 c5 f1 

[2021-08-02 11:14:42]
清除消息窗口！

[2021-08-02 11:14:45]
文件路径设置成功!

[2021-08-02 11:14:46]
保存至路径：F:/Trainning_Camp/2021_07_20/ModBus_RTU_slaver/build-ModBus_RTU_slaver-Desktop_Qt_5_4_0_MinGW_32bit-Debug/messagehistory.txt
文件名称：messagehistory.txt
文件大小：4972
创建日期：2021-07-28 12:15:12
最后保存日期：2021-08-02 10:57:30


[2021-08-02 11:14:51]
收到来自串口：COM2的报文：
01 0f 27 0f 00 02 01 03 cc 40 
该请求报文的请求无法满足！
已向主机发送异常响应报文：01 8f 02 c5 f1 

[2021-08-02 11:15:04]
收到来自串口：COM2的报文：
01 0f 27 10 00 01 01 01 28 43 
该请求报文的起始地址字节不合法！
已向主机发送异常响应报文：01 8f 02 c5 f1 

[2021-08-02 11:15:24]
收到来自串口：COM2的报文：
01 02 00 00 00 01 01 01 33 97 
非法功能码！
已向主机发送异常响应报文：01 82 01 81 60 

[2021-08-02 11:15:45]
收到来自串口：COM2的报文：
01 0f 00 00 00 0f 01 01 01 d5 a4 
该请求报文的字节字段不合法！
已向主机发送异常响应报文：01 8f 03 04 31 

[2021-08-02 11:16:02]
收到来自串口：COM2的报文：
01 0f 00 00 00 01 01 01 01 d7 4c 
该请求报文的字节字段不合法！
已向主机发送异常响应报文：01 8f 03 04 31 

[2021-08-02 11:16:21]
清除消息窗口！

[2021-08-02 11:16:21]
保存至路径：F:/Trainning_Camp/2021_07_20/ModBus_RTU_slaver/build-ModBus_RTU_slaver-Desktop_Qt_5_4_0_MinGW_32bit-Debug/messagehistory.txt
文件名称：messagehistory.txt
文件大小：7364
创建日期：2021-07-28 12:15:12
最后保存日期：2021-08-02 11:14:48


[2021-08-02 11:16:32]
收到来自串口：COM2的报文：
01 0f 00 00 00 01 01 01 01 d7 4c 
该请求报文的字节字段不合法！
已向主机发送异常响应报文：01 8f 03 04 31 

[2021-08-02 11:17:29]
收到来自串口：COM2的报文：
01 0f 00 00 00 0a 02 01 9e 65 
该请求报文的字节字段不合法！
已向主机发送异常响应报文：01 8f 03 04 31 

[2021-08-02 11:17:41]
收到来自串口：COM2的报文：
01 0f 
报文长度不合法！

[2021-08-02 11:17:50]
收到来自串口：COM2的报文：
01 0f 00 25 f0 
报文长度不合法！

[2021-08-02 11:17:59]
收到来自串口：COM2的报文：
01 0f 00 00 00 01 01 01 ef 58 
该报文CRC校验出错！

[2021-08-02 11:22:22]
收到来自串口：COM2的报文：
02 0f 00 00 00 01 01 01 af 42 
收到的报文目的地址不是本机！

[2021-08-02 11:22:49]
收到来自串口：COM2的报文：
01 03 00 00 00 00 45 ca 
该请求报文的数量字节不合法！
已向主机发送异常响应报文：01 83 03 01 31 

[2021-08-02 11:23:00]
清除消息窗口！

[2021-08-02 13:23:50]
成功打开串口! 串口号：COM2

[2021-08-02 13:23:52]
收到来自串口：COM2的报文：
01 03 27 0f 00 02 fe bc 
该请求报文的请求无法满足！所请求的寄存器数量大于该起始地址可以读取的寄存器数量！
已向主机发送异常响应报文：01 83 02 c0 f1 

[2021-08-02 13:24:10]
收到来自串口：COM2的报文：
01 03 27 10 00 01 8f 7b 
该请求报文的起始地址字节不合法！
已向主机发送异常响应报文：01 83 02 c0 f1 

[2021-08-02 13:24:43]
收到来自串口：COM2的报文：
01 03 00 00 00 7e c5 ea 
该请求报文的数量字节不合法！
已向主机发送异常响应报文：01 83 03 01 31 

[2021-08-02 13:24:58]
收到来自串口：COM2的报文：
01 03 00 00 00 00 45 ca 
该请求报文的数量字节不合法！
已向主机发送异常响应报文：01 83 03 01 31 

[2021-08-02 13:25:20]
收到来自串口：COM2的报文：
01 03 27 0f 00 00 7f 7d 
该请求报文的数量字节不合法！
已向主机发送异常响应报文：01 83 03 01 31 

[2021-08-02 13:25:29]
清除消息窗口！

[2021-08-02 13:25:32]
文件路径设置成功!

[2021-08-02 13:25:33]
保存至路径：F:/Trainning_Camp/2021_07_20/ModBus_RTU_slaver/build-ModBus_RTU_slaver-Desktop_Qt_5_4_0_MinGW_32bit-Debug/messagehistory.txt
文件名称：messagehistory.txt
文件大小：10000
创建日期：2021-07-28 12:15:12
最后保存日期：2021-08-02 11:23:02


[2021-08-02 13:26:04]
收到来自串口：COM2的报文：
01 04 00 00 00 01 31 ca 
非法功能码！
已向主机发送异常响应报文：01 84 01 82 c0 

[2021-08-02 13:26:16]
收到来自串口：COM2的报文：
01 03 00 00 00 00 45 c0 
该报文CRC校验出错！

[2021-08-02 13:26:28]
收到来自串口：COM2的报文：
01 03 00 00 00 01 00 0a 63 
该请求报文长度不正确！

[2021-08-02 13:26:46]
收到来自串口：COM2的报文：
01 03 00 00 00 01 00 01 22 c7 
该请求报文长度不正确！

[2021-08-02 13:26:55]
收到来自串口：COM2的报文：
01 03 00 00 01 d8 44 
报文长度不合法！

[2021-08-02 13:27:33]
清除消息窗口！

[2021-08-02 13:27:33]
保存至路径：F:/Trainning_Camp/2021_07_20/ModBus_RTU_slaver/build-ModBus_RTU_slaver-Desktop_Qt_5_4_0_MinGW_32bit-Debug/messagehistory.txt
文件名称：messagehistory.txt
文件大小：11158
创建日期：2021-07-28 12:15:12
最后保存日期：2021-08-02 13:25:34


[2021-08-02 13:28:27]
收到来自串口：COM2的报文：
01 
报文长度不合法！

[2021-08-02 13:28:36]
收到来自串口：COM2的报文：
02 03 00 00 00 7d 85 d8 
收到的报文目的地址不是本机！

[2021-08-02 13:30:06]
收到来自串口：COM2的报文：
01 01 00 00 00 01 fd ca 

[2021-08-02 13:30:06]
请求报文解析成功！
已向主机发送响应报文：01 01 01 00 51 88 

[2021-08-02 13:30:18]
收到来自串口：COM2的报文：
01 01 27 0f 00 01 c7 7d 

[2021-08-02 13:30:18]
请求报文解析成功！
已向主机发送响应报文：01 01 01 00 51 88 

[2021-08-02 13:30:25]
清除消息窗口！

[2021-08-02 13:36:28]
成功打开串口! 串口号：COM2

[2021-08-02 13:36:30]
收到来自串口：COM2的报文：
01 01 27 0f 00 02 87 7c 
该请求报文的请求无法满足！所请求的线圈数量大于该起始地址可以读取的线圈数量！
已向主机发送异常响应报文：01 81 02 c1 91 

[2021-08-02 13:36:54]
收到来自串口：COM2的报文：
01 01 00 00 00 00 3c 0a 
该请求报文的数量项不合法！
已向主机发送异常响应报文：01 81 03 00 51 

[2021-08-02 13:37:08]
收到来自串口：COM2的报文：
01 01 00 00 07 d1 fe 66 
该请求报文的数量项不合法！
已向主机发送异常响应报文：01 81 03 00 51 

[2021-08-02 13:37:19]
收到来自串口：COM2的报文：
01 02 00 00 07 d0 7b a6 
非法功能码！
已向主机发送异常响应报文：01 82 01 81 60 

[2021-08-02 13:38:34]
收到来自串口：COM2的报文：
01 02 00 00 07 d0 7b a6 
非法功能码！
已向主机发送异常响应报文：01 82 01 81 60 

[2021-08-02 13:38:39]
清除消息窗口！

[2021-08-02 13:38:42]
文件路径设置成功!

[2021-08-02 13:38:43]
保存至路径：F:/Trainning_Camp/2021_07_20/ModBus_RTU_slaver/build-ModBus_RTU_slaver-Desktop_Qt_5_4_0_MinGW_32bit-Debug/messagehistory.txt
文件名称：messagehistory.txt
文件大小：13072
创建日期：2021-07-28 12:15:12
最后保存日期：2021-08-02 13:30:26


[2021-08-02 13:38:49]
收到来自串口：COM2的报文：
01 01 27 0f 00 01 c7 20 
该报文CRC校验出错！

[2021-08-02 13:39:43]
收到来自串口：COM2的报文：
01 01 00 00 00 01 00 0b 81 
该请求报文长度不正确！

[2021-08-02 13:39:52]
收到来自串口：COM2的报文：
01 01 00 00 00 18 3c 
报文长度不合法！

[2021-08-02 13:40:03]
收到来自串口：COM2的报文：
01 
报文长度不合法！

[2021-08-02 13:40:09]
收到来自串口：COM2的报文：
01 00 00 10 
报文长度不合法！

[2021-08-02 13:40:18]
收到来自串口：COM2的报文：
02 01 00 00 07 d0 3f 95 
收到的报文目的地址不是本机！

[2021-08-02 13:43:03]
清除消息窗口！

[2021-08-02 18:55:59 星期一]
成功打开串口! 串口号：COM2

[2021-08-02 18:56:01 星期一]
收到来自串口：COM2的报文：
01 10 27 0f 00 01 02 02 02 71 0c 

[2021-08-02 18:56:01 星期一]
请求报文解析成功！
已向主机发送响应报文：01 10 27 0f 00 01 3b 7e 

[2021-08-02 18:56:24 星期一]
收到来自串口：COM2的报文：
01 0f 27 0f 00 01 01 01 bd 81 

[2021-08-02 18:56:24 星期一]
请求报文解析成功！
已向主机发送响应报文：01 0f 27 0f 00 01 ae bc 

[2021-08-02 18:56:39 星期一]
清除消息窗口！

[2021-08-02 18:56:42 星期一]
文件路径设置成功!

[2021-08-02 18:57:29 星期一]
成功打开串口! 串口号：COM2

[2021-08-02 18:57:32 星期一]
收到来自串口：COM2的报文：
01 0f 27 0f 00 01 01 01 bd 81 

[2021-08-02 18:57:32 星期一]
请求报文解析成功！
已向主机发送响应报文：01 0f 27 0f 00 01 ae bc 

[2021-08-02 18:58:31 星期一]
收到来自串口：COM2的报文：
01 0f 00 00 07 b1 f7 a0 00 00 00 00 00 00 00 00 00 00 00 00 00 00 00 00 00 00 00 00 00 00 00 00 00 00 00 00 00 00 00 00 00 00 00 00 00 00 10 00 00 00 00 00 00 00 00 00 00 00 00 00 00 00 00 00 00 00 00 00 00 00 00 00 00 01 00 00 00 00 00 00 00 00 00 00 00 00 00 00 00 00 00 00 00 00 00 00 00 00 00 00 00 00 00 00 00 00 00 00 00 00 00 00 00 00 00 00 00 00 00 00 00 00 00 00 00 00 00 00 00 00 00 00 00 00 00 00 00 00 00 00 00 00 00 00 00 00 00 00 00 00 00 00 00 00 00 00 00 00 00 00 00 00 00 00 00 00 00 00 00 00 00 00 00 00 00 00 00 00 00 00 00 00 00 00 00 00 00 00 00 00 00 00 00 00 00 00 00 00 00 00 00 00 00 00 00 00 00 00 00 00 00 00 00 00 00 00 00 00 00 00 00 00 00 00 00 00 00 00 00 00 00 00 00 00 00 00 00 00 00 00 b1 00 00 00 00 00 00 00 00 a0 a0 a0 11 00 e0 42 
该请求报文的数量项不合法！
已向主机发送异常响应报文：01 8f 03 04 31 

[2021-08-02 18:59:36 星期一]
清除消息窗口！

[2021-08-02 18:59:39 星期一]
文件路径设置成功!

[2021-08-02 18:59:40 星期一]
保存至路径：F:/Trainning_Camp/2021_07_20/ModBus_RTU_slaver/build-ModBus_RTU_slaver-Desktop_Qt_5_4_0_MinGW_32bit-Debug/messagehistory.txt
文件名称：messagehistory.txt
文件大小：15799
创建日期：2021-07-28 12:15:12
最后保存日期：2021-08-02 18:56:44


[2021-08-02 18:59:43 星期一]
关闭应用程序！

[2021-08-03 00:11:56 星期二]
成功打开串口! 串口号：COM2

[2021-08-03 00:12:20 星期二]
收到来自串口：COM2的报文：
01 01 00 00 00 01 fd ca 

[2021-08-03 00:12:20 星期二]
请求报文解析成功！
已向主机发送响应报文：01 01 01 01 90 48 

[2021-08-03 00:14:27 星期二]
收到来自串口：COM2的报文：
01 01 ff ff 00 01 fd ee 

[2021-08-03 00:14:27 星期二]
请求报文解析成功！
已向主机发送响应报文：01 01 01 01 90 48 

[2021-08-03 00:18:56 星期二]
收到来自串口：COM2的报文：
01 01 00 00 07 d0 3f a6 

[2021-08-03 00:18:56 星期二]
请求报文解析成功！
已向主机发送响应报文：01 01 fa 00 00 00 00 00 00 00 00 00 00 00 00 00 00 00 00 00 00 00 00 00 00 00 00 00 00 00 00 00 00 00 00 00 00 00 00 00 00 00 00 00 00 00 00 00 00 00 00 00 00 00 00 00 00 00 00 00 00 00 00 00 00 00 00 00 00 00 00 00 00 00 00 00 00 00 00 00 00 00 00 00 00 00 00 00 00 00 00 00 00 00 00 00 00 00 00 00 00 00 00 00 00 00 00 00 00 00 00 00 00 00 00 00 00 00 00 00 00 00 00 00 00 00 00 00 00 00 00 00 00 00 00 00 00 00 00 00 00 00 00 00 00 00 00 00 00 00 00 00 00 00 00 00 00 00 00 00 00 00 00 00 00 00 00 00 00 00 00 00 00 00 00 00 00 00 00 00 00 00 00 00 00 00 00 00 00 00 00 00 00 00 00 00 00 00 00 00 00 00 00 00 00 00 00 00 00 00 00 00 00 00 00 00 00 00 00 00 00 00 00 00 00 00 00 00 00 00 00 00 00 00 00 00 00 00 00 00 00 00 00 00 00 00 00 00 00 00 00 00 00 f5 af 

[2021-08-03 00:23:18 星期二]
收到来自串口：COM2的报文：
01 01 ff ff 00 0a bc 29 
该请求报文的请求无法满足！所请求的线圈数量大于该起始地址可以读取的线圈数量！
已向主机发送异常响应报文：01 81 02 c1 91 

[2021-08-03 00:26:05 星期二]
收到来自串口：COM2的报文：
01 01 ff ff 00 02 87 7c 
该报文CRC校验出错！

[2021-08-03 00:26:38 星期二]
收到来自串口：COM2的报文：
01 01 ff ff 00 02 bd ef 
该请求报文的请求无法满足！所请求的线圈数量大于该起始地址可以读取的线圈数量！
已向主机发送异常响应报文：01 81 02 c1 91 

[2021-08-03 00:27:03 星期二]
收到来自串口：COM2的报文：
01 01 00 00 00 00 3c 0a 
该请求报文的数量项不合法！
已向主机发送异常响应报文：01 81 03 00 51 

[2021-08-03 00:27:21 星期二]
清除消息窗口！

[2021-08-03 00:27:24 星期二]
文件路径设置成功!

[2021-08-03 08:09:57 星期二]
成功打开串口! 串口号：COM2

[2021-08-03 08:14:18 星期二]
收到来自串口：COM2的报文：
01 03 ff ff 00 01 84 2e 

[2021-08-03 08:14:18 星期二]
请求报文解析成功！
已向主机发送响应报文：01 03 02 00 14 b8 4b 

[2021-08-03 08:16:29 星期二]
收到来自串口：COM2的报文：
01 03 00 00 00 7d 85 eb 

[2021-08-03 08:16:29 星期二]
请求报文解析成功！
已向主机发送响应报文：01 03 fa 02 02 00 00 00 00 00 00 00 00 00 00 00 00 00 00 00 00 00 00 00 00 00 00 00 00 00 00 00 00 00 00 00 00 00 00 00 00 00 00 00 00 00 00 00 00 00 00 00 00 00 00 00 00 00 00 00 00 00 00 00 00 00 00 00 00 00 00 00 00 00 00 00 00 00 00 00 00 00 00 00 00 00 00 00 00 00 00 00 00 00 00 00 00 00 00 00 00 00 00 00 00 00 00 00 00 00 00 00 00 00 00 00 00 00 00 00 00 00 00 00 00 00 00 00 00 00 00 00 00 00 00 00 00 00 00 00 00 00 00 00 00 00 00 00 00 00 00 00 00 00 00 00 00 00 00 00 00 00 00 00 00 00 00 00 00 00 00 00 00 00 00 00 00 00 00 00 00 00 00 00 00 00 00 00 00 00 00 00 00 00 00 00 00 00 00 00 00 00 00 00 00 00 00 00 00 00 00 00 00 00 00 00 00 00 00 00 00 00 00 00 01 00 0c 00 7d 04 e9 04 e9 04 e9 04 e9 04 e9 04 e9 04 e9 04 e9 04 e9 04 e9 00 00 00 00 5a 8d 

[2021-08-03 08:17:37 星期二]
收到来自串口：COM2的报文：
01 03 ff ff 00 02 c4 2f 
该请求报文的请求无法满足！所请求的寄存器数量大于该起始地址可以读取的寄存器数量！
已向主机发送异常响应报文：01 83 02 c0 f1 

[2021-08-03 08:22:03 星期二]
收到来自串口：COM2的报文：
01 03 00 00 00 7e c5 ea 
该请求报文的数量项不合法！
已向主机发送异常响应报文：01 83 03 01 31 

[2021-08-03 08:22:18 星期二]
清除消息窗口！

[2021-08-03 08:22:22 星期二]
文件路径设置成功!

[2021-08-03 08:26:18 星期二]
成功打开串口! 串口号：COM2

[2021-08-03 08:26:21 星期二]
收到来自串口：COM2的报文：
01 03 00 ff 00 20 45 c0 
该报文CRC校验出错！

[2021-08-03 08:27:13 星期二]
收到来自串口：COM2的报文：
01 03 00 00 00 01 22 8a 7a 
该请求报文长度不正确！

[2021-08-03 08:29:40 星期二]
收到来自串口：COM2的报文：
01 03 00 00 01 d8 44 
报文长度不合法！

[2021-08-03 08:30:08 星期二]
收到来自串口：COM2的报文：
01 
报文长度不合法！

[2021-08-03 08:31:34 星期二]
收到来自串口：COM2的报文：
02 03 00 54 00 fd c5 a8 

[2021-08-03 08:33:34 星期二]
清除消息窗口！

[2021-08-03 08:33:36 星期二]
文件路径设置成功!

[2021-08-03 08:33:37 星期二]
保存至路径：F:/Trainning_Camp/2021_07_20/ModBus_RTU_slaver/build-ModBus_RTU_slaver-Desktop_Qt_5_4_0_MinGW_32bit-Debug/messagehistory.txt
文件名称：messagehistory.txt
文件大小：21722
创建日期：2021-07-28 12:15:12
最后保存日期：2021-08-03 08:22:24


[2021-08-03 08:33:46 星期二]
收到来自串口：COM2的报文：
01 0f 00 00 00 01 01 01 ef 57 

[2021-08-03 08:33:46 星期二]
请求报文解析成功！
已向主机发送响应报文：01 0f 00 00 00 01 94 0b 

[2021-08-03 08:34:42 星期二]
收到来自串口：COM2的报文：
01 0f ff ff 00 01 01 01 ef 4c 

[2021-08-03 08:34:42 星期二]
请求报文解析成功！
已向主机发送响应报文：01 0f ff ff 00 01 94 2f 

[2021-08-03 08:40:50 星期二]
收到来自串口：COM2的报文：
01 0f 00 00 07 b0 f6 a0 00 00 00 00 00 00 00 00 00 00 00 00 00 00 00 00 00 00 00 00 00 00 00 00 00 00 00 00 00 00 00 00 00 00 00 00 00 00 10 00 00 00 00 00 00 00 00 00 00 00 00 00 00 00 00 00 00 00 00 00 00 00 00 00 00 01 00 00 00 00 00 00 00 00 00 00 00 00 00 00 00 00 00 00 00 00 00 00 00 00 00 00 00 00 00 00 00 00 00 00 00 00 00 00 00 00 00 00 00 00 00 00 00 00 00 00 00 00 00 00 00 00 00 00 00 00 00 00 00 00 00 00 00 00 00 00 00 00 00 00 00 00 00 00 00 00 00 00 00 00 00 00 00 00 00 00 00 00 00 00 00 00 00 00 00 00 00 00 00 00 00 00 00 00 00 00 00 00 00 00 00 00 00 00 00 00 00 00 00 00 00 00 00 00 00 00 00 00 00 00 00 00 00 00 00 00 00 00 00 00 00 00 00 00 00 00 00 00 00 00 00 00 00 00 00 00 00 00 00 00 00 00 b1 00 00 00 00 00 00 00 00 a0 a0 a0 11 b8 25 

[2021-08-03 08:40:50 星期二]
请求报文解析成功！
已向主机发送响应报文：01 0f 00 00 07 b0 56 4f 

[2021-08-03 08:41:22 星期二]
收到来自串口：COM2的报文：
01 0f 00 00 07 b1 f7 a0 00 00 00 00 00 00 00 00 00 00 00 00 00 00 00 00 00 00 00 00 00 00 00 00 00 00 00 00 00 00 00 00 00 00 00 00 00 00 10 00 00 00 00 00 00 00 00 00 00 00 00 00 00 00 00 00 00 00 00 00 00 00 00 00 00 01 00 00 00 00 00 00 00 00 00 00 00 00 00 00 00 00 00 00 00 00 00 00 00 00 00 00 00 00 00 00 00 00 00 00 00 00 00 00 00 00 00 00 00 00 00 00 00 00 00 00 00 00 00 00 00 00 00 00 00 00 00 00 00 00 00 00 00 00 00 00 00 00 00 00 00 00 00 00 00 00 00 00 00 00 00 00 00 00 00 00 00 00 00 00 00 00 00 00 00 00 00 00 00 00 00 00 00 00 00 00 00 00 00 00 00 00 00 00 00 00 00 00 00 00 00 00 00 00 00 00 00 00 00 00 00 00 00 00 00 00 00 00 00 00 00 00 00 00 00 00 00 00 00 00 00 00 00 00 00 00 00 00 00 00 00 00 b1 00 00 00 00 00 00 00 00 a0 a0 a0 11 00 e0 42 
该请求报文的数量项不合法！
已向主机发送异常响应报文：01 8f 03 04 31 

[2021-08-03 08:42:32 星期二]
收到来自串口：COM2的报文：
01 0f 00 00 00 00 00 0b 3f 
该请求报文的数量项不合法！
已向主机发送异常响应报文：01 8f 03 04 31 

[2021-08-03 08:44:59 星期二]
收到来自串口：COM2的报文：
01 0f ff ff 00 02 01 03 9e 8d 
该请求报文的请求无法满足！所请求的线圈数量大于该起始地址可以写入的寄存器数量！
已向主机发送异常响应报文：01 8f 02 c5 f1 

[2021-08-03 08:49:45 星期二]
收到来自串口：COM2的报文：
01 02 00 10 00 01 01 01 f2 54 
非法功能码！
已向主机发送异常响应报文：01 82 01 81 60 

[2021-08-03 08:51:29 星期二]
收到来自串口：COM2的报文：
01 0f 00 00 00 0f 01 01 01 d5 a4 
该请求报文的字节字段不合法！
已向主机发送异常响应报文：01 8f 03 04 31 

[2021-08-03 08:52:53 星期二]
收到来自串口：COM2的报文：
01 0f 00 00 00 01 01 01 01 d7 4c 
该请求报文的字节字段不合法！
已向主机发送异常响应报文：01 8f 03 04 31 

[2021-08-03 08:53:42 星期二]
清除消息窗口！

[2021-08-03 10:17:02 星期二]
成功打开串口! 串口号：COM2

[2021-08-03 10:17:42 星期二]
收到来自串口：COM2的报文：
01 0f 00 02 00 01 01 01 96 97 

[2021-08-03 10:17:42 星期二]
请求报文解析成功！
已向主机发送响应报文：01 0f 00 02 00 01 35 cb 

[2021-08-03 10:18:13 星期二]
收到来自串口：COM2的报文：
01 0f 00 01 00 01 00 01 d3 07 
该请求报文的字节字段不合法！
已向主机发送异常响应报文：01 8f 03 04 31 

[2021-08-03 10:18:48 星期二]
收到来自串口：COM2的报文：
01 0f 00 01 00 01 01 01 d2 97 

[2021-08-03 10:18:48 星期二]
请求报文解析成功！
已向主机发送响应报文：01 0f 00 01 00 01 c5 cb 

[2021-08-03 10:19:57 星期二]
收到来自串口：COM2的报文：
01 10 00 10 00 01 02 0f 02 20 f1 

[2021-08-03 10:19:57 星期二]
请求报文解析成功！
已向主机发送响应报文：01 10 00 10 00 01 00 0c 

[2021-08-03 10:21:19 星期二]
关闭应用程序！

[2021-08-03 10:21:26 星期二]
文件路径设置成功!

[2021-08-03 14:37:13 星期二]
清除消息窗口！

[2021-08-03 14:37:21 星期二]
文件路径设置成功!

[2021-08-03 14:37:22 星期二]
保存至路径：F:/Trainning_Camp/2021_07_20/ModBus_RTU_slaver/build-ModBus_RTU_slaver-Desktop_Qt_5_4_0_MinGW_32bit-Debug/messagehistory.txt
文件名称：messagehistory.txt
文件大小：27274
创建日期：2021-07-28 12:15:12
最后保存日期：2021-08-03 10:21:28


[2021-08-03 14:37:24 星期二]
关闭应用程序！

[2021-08-04 11:06:16 星期三]
成功打开串口! 串口号：COM5

[2021-08-04 11:06:18 星期三]
收到来自串口：COM5的报文：
01 0f 00 00 07 b0 f6 ff ff ff ff ff ff ff ff ff ff ff ff ff ff ff ff ff ff ff ff ff ff ff ff ff ff ff ff ff ff ff ff ff ff ff ff ff ff ff ff ff ff ff ff ff ff ff ff ff ff ff ff ff ff ff ff ff ff ff ff ff ff ff ff ff ff ff ff ff ff ff ff ff ff ff ff ff ff ff ff ff ff ff ff ff ff ff ff ff ff ff ff ff ff ff ff ff ff ff ff ff ff ff ff ff ff ff ff ff ff ff ff ff ff ff ff ff ff ff ff ff ff ff ff ff ff ff ff ff ff ff ff ff ff ff ff ff ff ff ff ff ff ff ff ff ff ff ff ff ff ff ff ff ff ff ff ff ff ff ff ff ff ff ff ff ff ff ff ff ff ff ff ff ff ff ff ff ff ff ff ff ff ff ff ff ff ff ff ff ff ff ff ff ff ff ff ff ff ff ff ff ff ff ff ff ff ff ff ff ff ff ff ff ff ff ff ff ff ff ff ff ff ff ff ff ff ff ff ff ff ff ff ff ff ff ff ff ff ff ff ff ff ff ff ff ff e8 75 

[2021-08-04 11:06:18 星期三]
请求报文解析成功！
已向主机发送响应报文：01 0f 00 00 07 b0 56 4f 

[2021-08-04 11:06:24 星期三]
收到来自串口：COM5的报文：
01 0f 00 00 07 b0 f6 ff ff ff ff ff ff ff ff ff ff ff ff ff ff ff ff ff ff ff ff ff ff ff ff ff ff ff ff ff ff ff ff ff ff ff ff ff ff ff ff ff ff ff ff ff ff ff ff ff ff ff ff ff ff ff ff ff ff ff ff ff ff ff ff ff ff ff ff ff ff ff ff ff ff ff ff ff ff ff ff ff ff ff ff ff ff ff ff ff ff ff ff ff ff ff ff ff ff ff ff ff ff ff ff ff ff ff ff ff ff ff ff ff ff ff ff ff ff ff ff ff ff ff ff ff ff ff ff ff ff ff ff ff ff ff ff ff ff ff ff ff ff ff ff ff ff ff ff ff ff ff ff ff ff ff ff ff ff ff ff ff ff ff ff ff ff ff ff ff ff ff ff ff ff ff ff ff ff ff ff ff ff ff ff ff ff ff ff ff ff ff ff ff ff ff ff ff ff ff ff ff ff ff ff ff ff ff ff ff ff ff ff ff ff ff ff ff ff ff ff ff ff ff ff ff ff ff ff ff ff ff ff ff ff ff ff ff ff ff ff ff ff ff ff ff ff e8 75 

[2021-08-04 11:06:24 星期三]
请求报文解析成功！
已向主机发送响应报文：01 0f 00 00 07 b0 56 4f 

[2021-08-04 11:06:28 星期三]
收到来自串口：COM5的报文：
01 0f 00 00 07 b0 f6 ff ff ff ff ff ff ff ff ff ff ff ff ff ff ff ff ff ff ff ff ff ff ff ff ff ff ff ff ff ff ff ff ff ff ff ff ff ff ff ff ff ff ff ff ff ff ff ff 
该报文CRC校验出错！

[2021-08-04 11:06:28 星期三]
收到来自串口：COM5的报文：
ff ff ff ff ff ff ff ff ff ff ff ff ff ff ff ff ff ff ff ff ff ff ff ff ff ff ff ff ff ff ff ff ff ff ff ff ff ff ff ff ff ff ff ff ff ff ff ff ff ff ff ff ff ff ff ff ff ff ff ff ff ff ff ff ff ff ff ff ff ff ff ff ff ff ff ff ff ff ff ff ff ff ff ff ff ff ff ff ff ff ff ff ff ff ff ff ff ff ff ff ff ff ff ff ff ff ff ff ff ff ff ff ff ff ff ff ff ff ff ff ff ff ff ff ff ff ff ff ff ff ff ff ff ff ff ff ff ff ff ff ff ff ff ff ff ff ff ff ff ff ff ff ff ff ff ff ff ff ff ff ff ff ff ff ff ff ff ff ff ff ff ff ff ff ff ff ff ff ff ff ff ff ff ff ff ff ff ff ff ff ff ff ff ff ff ff ff ff e8 75 
该报文CRC校验出错！

[2021-08-04 11:07:45 星期三]
清除消息窗口！

[2021-08-04 11:07:48 星期三]
文件路径设置成功!

[2021-08-04 11:07:49 星期三]
保存至路径：F:/Trainning_Camp/2021_07_20/ModBus_RTU_slaver/build-ModBus_RTU_slaver-Desktop_Qt_5_4_0_MinGW_32bit-Debug/messagehistory.txt
文件名称：messagehistory.txt
文件大小：27751
创建日期：2021-07-28 12:15:12
最后保存日期：2021-08-03 14:37:26


[2021-08-04 11:07:52 星期三]
收到来自串口：COM5的报文：
01 0f 00 00 00 00 01 00 7f 57 
该请求报文的数量项不合法！
已向主机发送异常响应报文：01 8f 03 04 31 

[2021-08-04 11:08:11 星期三]
收到来自串口：COM5的报文：
01 0f 00 00 07 b1 f7 ff 
该报文CRC校验出错！

[2021-08-04 11:08:11 星期三]
收到来自串口：COM5的报文：
ff ff ff ff ff ff ff ff ff ff ff ff ff ff ff ff ff ff ff ff ff ff ff ff ff ff ff ff ff ff ff ff ff ff ff ff ff ff ff ff ff ff ff ff ff ff ff ff ff ff ff ff ff ff ff ff ff ff ff ff ff ff ff ff ff ff ff ff ff ff ff ff ff ff ff ff ff ff ff ff ff ff ff ff ff ff ff ff ff ff ff ff ff ff ff ff ff ff ff ff ff ff ff ff ff ff ff ff ff ff ff ff ff ff ff ff ff ff ff ff ff ff ff ff ff ff ff ff ff ff ff ff ff ff ff ff ff ff ff ff ff ff ff ff ff ff ff ff ff ff ff ff ff ff ff ff ff ff ff ff ff ff ff ff ff ff ff ff ff ff ff ff ff ff ff ff ff ff ff ff ff ff ff ff ff ff ff ff ff ff ff ff ff ff ff ff ff ff ff ff ff ff ff ff ff ff ff ff ff ff ff ff ff ff ff ff ff ff ff ff ff ff ff ff ff ff ff ff ff ff ff ff ff ff ff ff ff ff ff ff ff ff ff ff ff ff ff 7e 04 
该报文CRC校验出错！

[2021-08-04 11:08:34 星期三]
收到来自串口：COM5的报文：
01 0f 00 00 07 b1 f7 ff ff ff ff ff ff 
该报文CRC校验出错！

[2021-08-04 11:08:34 星期三]
收到来自串口：COM5的报文：
