[Section0]
num=13

[Section1]
#长度判断：最大长度
#请求报文
requestMessage= 01 03 00 00 00 7D 85 EB
#响应报文
responseMessage=01 03 FA 01 C8 03 15 00 00 00 00 00 00 00 00 00 00 00 00 00 00 00 00 00 00 00 00 00 00 00 00 00 00 00 00 00 00 00 00 00 00 00 00 00 00 00 00 00 00 00 00 00 00 00 00 00 00 00 00 00 00 00 00 00 00 00 00 00 00 00 00 00 00 00 00 00 00 00 00 00 00 00 00 00 00 00 00 00 00 00 00 00 00 00 00 00 00 00 00 00 00 00 00 00 00 00 00 00 00 00 00 00 00 00 00 00 00 00 00 00 00 00 00 00 00 00 00 00 00 00 00 00 00 00 00 00 00 00 00 00 00 00 00 00 00 00 00 00 00 00 00 00 00 00 00 00 00 00 00 00 00 00 00 00 00 00 00 00 00 00 00 00 00 00 00 00 00 00 00 00 00 00 00 00 00 00 00 00 00 00 00 00 00 00 00 00 00 00 00 00 00 00 00 00 00 00 00 00 00 00 00 00 00 00 00 00 00 00 00 00 00 00 00 00 01 00 0C 00 7D 04 E9 04 E9 04 E9 04 E9 04 E9 04 E9 04 E9 04 E9 04 E9 04 E9 00 00 00 00 00 00 A4 28
expected=0

[Section2]
#长度判断：最小长度
#请求报文
requestMessage= 01 01 00 00 00 01 FD CA
#响应报文
responseMessage=01
expected=0

[Section3]
#校验码错误，响应报文中校验码错误！
#请求报文
requestMessage= 01 01 00 00 00 01 FD CA
#响应报文
responseMessage=01 01 01 01 79 AC
expected=0

[Section4]
#从机地址错误，响应报文与请求报文的从机地址不一致！
#请求报文
requestMessage=01 01 00 00 00 01 FD CA
#响应报文
responseMessage=02 01 01 01 90 0C
expected=0

[Section5]
#
#请求报文
requestMessage=01 0F 00 00 00 01 01 01 EF 57
#响应报文
responseMessage=01 0F 00 00 00 01 94 0B
expected=1

[Section6]
#查询指令回应报文长度不正确！
#请求报文
requestMessage=01 01 00 00 00 01 FD CA
#响应报文
responseMessage=01 01 01 E0 50
expected=0

[Section7]
#功能码错误，响应报文与请求报文中的功能码不一致！
#请求报文
requestMessage=01 01 00 00 00 01 FD CA
#响应报文
responseMessage=01 03 00 00 00 01 84 0A
expected=0

[Section8]
#字节数错误，响应报文中数据域字节数和实际数据字节总数不一致！
#请求报文
requestMessage=01 01 00 00 00 01 FD CA
#响应报文
responseMessage=01 01 05 01 60 48
expected=0

[Section9]
#01，02，03异常回应报文长度不正确！
#请求报文
requestMessage=01 01 00 00 00 01 FD CA
#响应报文
responseMessage=01 81
expected=0

[Section10]
#功能正常
#请求报文
requestMessage=01 0F 00 00 00 01 01 01 EF 57
#响应报文
responseMessage=01 0F 00 00 00 01 94 0B
expected=1

[Section11]
#异常回应正常
#请求报文
requestMessage=01 02 00 00 07 D0 7B A6
#响应报文
responseMessage=
expected=0

[Section12]
#异常回应正常
#请求报文
requestMessage=01 03 FF FF 00 02 C4 2F
#响应报文
responseMessage=01 83 02 C0 F1
expected=1

[Section13]
#正常
#请求报文
requestMessage=01 10 00 01 00 01 02 04 D2 25 1C
#响应报文
responseMessage=01 10 00 01 00 01 50 09
expected=1