[2021-12-29 10:19:53 星期三]
无文件路径!，请先选择路径进行保存！

[2021-12-29 10:19:57 星期三]
文件路径设置成功!

[2021-12-29 10:20:07 星期三]
关闭应用程序！

[2021-12-29 10:35:19 星期三]
无文件路径!，请先选择路径进行保存！

[2021-12-29 10:35:26 星期三]
文件路径设置成功!

[2021-12-29 10:35:29 星期三]
关闭应用程序！

[2021-12-29 10:39:59 星期三]
关闭应用程序！

[2021-12-29 10:40:02 星期三]
文件路径设置成功!

[2021-12-29 10:41:46 星期三]
关闭应用程序！

[2021-12-29 10:41:49 星期三]
文件路径设置成功!

[2021-12-29 10:42:54 星期三]
关闭应用程序！

[2021-12-29 10:42:57 星期三]
文件路径设置成功!

[2021-12-29 10:44:24 星期三]
关闭应用程序！

[2021-12-29 10:44:27 星期三]
文件路径设置成功!

[2021-12-29 10:46:57 星期三]
成功打开串口! 串口号：COM2

[2021-12-29 10:47:03 星期三]
收到来自串口：COM2的报文：
01 01 00 00 00 08 3d cc 

[2021-12-29 10:47:03 星期三]
请求报文解析成功！
已向主机发送响应报文：01 01 01 08 50 4e 

[2021-12-29 10:47:09 星期三]
收到来自串口：COM2的报文：
01 01 00 00 00 08 3d cc 

[2021-12-29 10:47:09 星期三]
请求报文解析成功！
已向主机发送响应报文：01 01 01 08 50 4e 

[2021-12-29 10:47:12 星期三]
收到来自串口：COM2的报文：
01 03 00 00 00 08 44 0c 

[2021-12-29 10:47:12 星期三]
请求报文解析成功！
已向主机发送响应报文：01 03 10 00 01 00 02 00 03 00 04 00 05 00 00 00 00 00 00 4a 9f 

[2021-12-29 10:47:38 星期三]
收到来自串口：COM2的报文：
01 0f 00 00 00 03 01 07 ce 95 

[2021-12-29 10:47:39 星期三]
请求报文解析成功！
已向主机发送响应报文：01 0f 00 00 00 03 15 ca 

[2021-12-29 10:47:56 星期三]
收到来自串口：COM2的报文：
01 10 00 00 00 03 06 00 0b 00 16 00 21 62 9d 

[2021-12-29 10:47:56 星期三]
请求报文解析成功！
已向主机发送响应报文：01 10 00 00 00 03 80 08 

[2021-12-29 10:48:06 星期三]
收到来自串口：COM2的报文：
01 01 00 00 07 d0 3f a6 01 01 00 00 07 d0 3f a6 01 01 00 00 07 d0 3f a6 
该报文CRC校验出错！

[2021-12-29 10:48:07 星期三]
收到来自串口：COM2的报文：
01 01 00 00 07 d0 3f a6 01 01 00 00 07 d0 3f a6 01 01 00 00 07 d0 3f a6 
该报文CRC校验出错！

[2021-12-29 10:48:16 星期三]
收到来自串口：COM2的报文：
01 01 00 00 07 d0 3f a6 

[2021-12-29 10:48:16 星期三]
请求报文解析成功！
已向主机发送响应报文：01 01 fa 0f 00 00 01 00 02 00 03 00 00 00 00 00 00 00 00 00 00 00 00 00 00 00 00 00 00 00 00 00 00 00 00 00 00 00 00 00 00 00 10 00 00 00 00 00 00 00 00 00 00 00 00 00 00 00 00 00 00 00 00 00 00 00 00 00 00 01 00 00 00 00 00 00 00 00 00 00 00 00 00 00 00 00 00 00 00 00 00 00 00 00 00 00 00 00 00 00 00 00 00 00 00 00 00 00 00 00 00 00 00 00 00 00 00 00 00 00 00 00 00 00 00 00 00 00 00 00 00 00 00 00 00 00 00 00 00 00 00 00 00 00 00 00 00 00 00 00 00 00 00 00 00 00 00 00 00 00 00 00 00 00 00 00 00 00 00 00 00 00 00 00 00 00 00 00 00 00 00 00 00 00 00 00 00 00 00 00 00 00 00 00 00 00 00 00 00 00 00 00 00 00 00 00 00 00 00 00 00 00 00 00 00 00 00 00 00 00 00 00 00 00 00 00 00 00 00 00 00 00 00 00 00 00 b1 00 00 00 00 00 00 00 00 a0 a0 a0 11 00 00 00 00 23 f7 

[2021-12-29 10:48:19 星期三]
收到来自串口：COM2的报文：
01 01 00 00 07 d0 3f a6 

[2021-12-29 10:48:19 星期三]
请求报文解析成功！
已向主机发送响应报文：01 01 fa 0f 00 00 01 00 02 00 03 00 00 00 00 00 00 00 00 00 00 00 00 00 00 00 00 00 00 00 00 00 00 00 00 00 00 00 00 00 00 00 10 00 00 00 00 00 00 00 00 00 00 00 00 00 00 00 00 00 00 00 00 00 00 00 00 00 00 01 00 00 00 00 00 00 00 00 00 00 00 00 00 00 00 00 00 00 00 00 00 00 00 00 00 00 00 00 00 00 00 00 00 00 00 00 00 00 00 00 00 00 00 00 00 00 00 00 00 00 00 00 00 00 00 00 00 00 00 00 00 00 00 00 00 00 00 00 00 00 00 00 00 00 00 00 00 00 00 00 00 00 00 00 00 00 00 00 00 00 00 00 00 00 00 00 00 00 00 00 00 00 00 00 00 00 00 00 00 00 00 00 00 00 00 00 00 00 00 00 00 00 00 00 00 00 00 00 00 00 00 00 00 00 00 00 00 00 00 00 00 00 00 00 00 00 00 00 00 00 00 00 00 00 00 00 00 00 00 00 00 00 00 00 00 00 b1 00 00 00 00 00 00 00 00 a0 a0 a0 11 00 00 00 00 23 f7 

[2021-12-29 10:48:20 星期三]
收到来自串口：COM2的报文：
01 01 00 00 07 d0 3f a6 

[2021-12-29 10:48:20 星期三]
请求报文解析成功！
已向主机发送响应报文：01 01 fa 0f 00 00 01 00 02 00 03 00 00 00 00 00 00 00 00 00 00 00 00 00 00 00 00 00 00 00 00 00 00 00 00 00 00 00 00 00 00 00 10 00 00 00 00 00 00 00 00 00 00 00 00 00 00 00 00 00 00 00 00 00 00 00 00 00 00 01 00 00 00 00 00 00 00 00 00 00 00 00 00 00 00 00 00 00 00 00 00 00 00 00 00 00 00 00 00 00 00 00 00 00 00 00 00 00 00 00 00 00 00 00 00 00 00 00 00 00 00 00 00 00 00 00 00 00 00 00 00 00 00 00 00 00 00 00 00 00 00 00 00 00 00 00 00 00 00 00 00 00 00 00 00 00 00 00 00 00 00 00 00 00 00 00 00 00 00 00 00 00 00 00 00 00 00 00 00 00 00 00 00 00 00 00 00 00 00 00 00 00 00 00 00 00 00 00 00 00 00 00 00 00 00 00 00 00 00 00 00 00 00 00 00 00 00 00 00 00 00 00 00 00 00 00 00 00 00 00 00 00 00 00 00 00 b1 00 00 00 00 00 00 00 00 a0 a0 a0 11 00 00 00 00 23 f7 

[2021-12-29 10:48:20 星期三]
收到来自串口：COM2的报文：
01 01 00 00 07 d0 3f a6 01 01 00 00 07 d0 3f a6 
该报文CRC校验出错！

[2021-12-29 10:48:22 星期三]
收到来自串口：COM2的报文：
01 01 00 00 07 d0 3f a6 

[2021-12-29 10:48:22 星期三]
请求报文解析成功！
已向主机发送响应报文：01 01 fa 0f 00 00 01 00 02 00 03 00 00 00 00 00 00 00 00 00 00 00 00 00 00 00 00 00 00 00 00 00 00 00 00 00 00 00 00 00 00 00 10 00 00 00 00 00 00 00 00 00 00 00 00 00 00 00 00 00 00 00 00 00 00 00 00 00 00 01 00 00 00 00 00 00 00 00 00 00 00 00 00 00 00 00 00 00 00 00 00 00 00 00 00 00 00 00 00 00 00 00 00 00 00 00 00 00 00 00 00 00 00 00 00 00 00 00 00 00 00 00 00 00 00 00 00 00 00 00 00 00 00 00 00 00 00 00 00 00 00 00 00 00 00 00 00 00 00 00 00 00 00 00 00 00 00 00 00 00 00 00 00 00 00 00 00 00 00 00 00 00 00 00 00 00 00 00 00 00 00 00 00 00 00 00 00 00 00 00 00 00 00 00 00 00 00 00 00 00 00 00 00 00 00 00 00 00 00 00 00 00 00 00 00 00 00 00 00 00 00 00 00 00 00 00 00 00 00 00 00 00 00 00 00 00 b1 00 00 00 00 00 00 00 00 a0 a0 a0 11 00 00 00 00 23 f7 

[2021-12-29 10:48:22 星期三]
收到来自串口：COM2的报文：
01 01 00 00 07 d0 3f a6 

[2021-12-29 10:48:22 星期三]
请求报文解析成功！
已向主机发送响应报文：01 01 fa 0f 00 00 01 00 02 00 03 00 00 00 00 00 00 00 00 00 00 00 00 00 00 00 00 00 00 00 00 00 00 00 00 00 00 00 00 00 00 00 10 00 00 00 00 00 00 00 00 00 00 00 00 00 00 00 00 00 00 00 00 00 00 00 00 00 00 01 00 00 00 00 00 00 00 00 00 00 00 00 00 00 00 00 00 00 00 00 00 00 00 00 00 00 00 00 00 00 00 00 00 00 00 00 00 00 00 00 00 00 00 00 00 00 00 00 00 00 00 00 00 00 00 00 00 00 00 00 00 00 00 00 00 00 00 00 00 00 00 00 00 00 00 00 00 00 00 00 00 00 00 00 00 00 00 00 00 00 00 00 00 00 00 00 00 00 00 00 00 00 00 00 00 00 00 00 00 00 00 00 00 00 00 00 00 00 00 00 00 00 00 00 00 00 00 00 00 00 00 00 00 00 00 00 00 00 00 00 00 00 00 00 00 00 00 00 00 00 00 00 00 00 00 00 00 00 00 00 00 00 00 00 00 00 b1 00 00 00 00 00 00 00 00 a0 a0 a0 11 00 00 00 00 23 f7 

[2021-12-29 10:48:23 星期三]
收到来自串口：COM2的报文：
01 01 00 00 07 d0 3f a6 

[2021-12-29 10:48:23 星期三]
请求报文解析成功！
已向主机发送响应报文：01 01 fa 0f 00 00 01 00 02 00 03 00 00 00 00 00 00 00 00 00 00 00 00 00 00 00 00 00 00 00 00 00 00 00 00 00 00 00 00 00 00 00 10 00 00 00 00 00 00 00 00 00 00 00 00 00 00 00 00 00 00 00 00 00 00 00 00 00 00 01 00 00 00 00 00 00 00 00 00 00 00 00 00 00 00 00 00 00 00 00 00 00 00 00 00 00 00 00 00 00 00 00 00 00 00 00 00 00 00 00 00 00 00 00 00 00 00 00 00 00 00 00 00 00 00 00 00 00 00 00 00 00 00 00 00 00 00 00 00 00 00 00 00 00 00 00 00 00 00 00 00 00 00 00 00 00 00 00 00 00 00 00 00 00 00 00 00 00 00 00 00 00 00 00 00 00 00 00 00 00 00 00 00 00 00 00 00 00 00 00 00 00 00 00 00 00 00 00 00 00 00 00 00 00 00 00 00 00 00 00 00 00 00 00 00 00 00 00 00 00 00 00 00 00 00 00 00 00 00 00 00 00 00 00 00 00 b1 00 00 00 00 00 00 00 00 a0 a0 a0 11 00 00 00 00 23 f7 

[2021-12-29 10:48:29 星期三]
收到来自串口：COM2的报文：
01 01 00 00 07 d0 3f a6 

[2021-12-29 10:48:29 星期三]
请求报文解析成功！
已向主机发送响应报文：01 01 fa 0f 00 00 01 00 02 00 03 00 00 00 00 00 00 00 00 00 00 00 00 00 00 00 00 00 00 00 00 00 00 00 00 00 00 00 00 00 00 00 10 00 00 00 00 00 00 00 00 00 00 00 00 00 00 00 00 00 00 00 00 00 00 00 00 00 00 01 00 00 00 00 00 00 00 00 00 00 00 00 00 00 00 00 00 00 00 00 00 00 00 00 00 00 00 00 00 00 00 00 00 00 00 00 00 00 00 00 00 00 00 00 00 00 00 00 00 00 00 00 00 00 00 00 00 00 00 00 00 00 00 00 00 00 00 00 00 00 00 00 00 00 00 00 00 00 00 00 00 00 00 00 00 00 00 00 00 00 00 00 00 00 00 00 00 00 00 00 00 00 00 00 00 00 00 00 00 00 00 00 00 00 00 00 00 00 00 00 00 00 00 00 00 00 00 00 00 00 00 00 00 00 00 00 00 00 00 00 00 00 00 00 00 00 00 00 00 00 00 00 00 00 00 00 00 00 00 00 00 00 00 00 00 00 b1 00 00 00 00 00 00 00 00 a0 a0 a0 11 00 00 00 00 23 f7 

[2021-12-29 10:48:29 星期三]
收到来自串口：COM2的报文：
01 01 00 00 07 d0 3f a6 

[2021-12-29 10:48:29 星期三]
请求报文解析成功！
已向主机发送响应报文：01 01 fa 0f 00 00 01 00 02 00 03 00 00 00 00 00 00 00 00 00 00 00 00 00 00 00 00 00 00 00 00 00 00 00 00 00 00 00 00 00 00 00 10 00 00 00 00 00 00 00 00 00 00 00 00 00 00 00 00 00 00 00 00 00 00 00 00 00 00 01 00 00 00 00 00 00 00 00 00 00 00 00 00 00 00 00 00 00 00 00 00 00 00 00 00 00 00 00 00 00 00 00 00 00 00 00 00 00 00 00 00 00 00 00 00 00 00 00 00 00 00 00 00 00 00 00 00 00 00 00 00 00 00 00 00 00 00 00 00 00 00 00 00 00 00 00 00 00 00 00 00 00 00 00 00 00 00 00 00 00 00 00 00 00 00 00 00 00 00 00 00 00 00 00 00 00 00 00 00 00 00 00 00 00 00 00 00 00 00 00 00 00 00 00 00 00 00 00 00 00 00 00 00 00 00 00 00 00 00 00 00 00 00 00 00 00 00 00 00 00 00 00 00 00 00 00 00 00 00 00 00 00 00 00 00 00 b1 00 00 00 00 00 00 00 00 a0 a0 a0 11 00 00 00 00 23 f7 

[2021-12-29 10:48:32 星期三]
收到来自串口：COM2的报文：
01 01 00 00 07 d0 3f a6 

[2021-12-29 10:48:32 星期三]
请求报文解析成功！
已向主机发送响应报文：01 01 fa 0f 00 00 01 00 02 00 03 00 00 00 00 00 00 00 00 00 00 00 00 00 00 00 00 00 00 00 00 00 00 00 00 00 00 00 00 00 00 00 10 00 00 00 00 00 00 00 00 00 00 00 00 00 00 00 00 00 00 00 00 00 00 00 00 00 00 01 00 00 00 00 00 00 00 00 00 00 00 00 00 00 00 00 00 00 00 00 00 00 00 00 00 00 00 00 00 00 00 00 00 00 00 00 00 00 00 00 00 00 00 00 00 00 00 00 00 00 00 00 00 00 00 00 00 00 00 00 00 00 00 00 00 00 00 00 00 00 00 00 00 00 00 00 00 00 00 00 00 00 00 00 00 00 00 00 00 00 00 00 00 00 00 00 00 00 00 00 00 00 00 00 00 00 00 00 00 00 00 00 00 00 00 00 00 00 00 00 00 00 00 00 00 00 00 00 00 00 00 00 00 00 00 00 00 00 00 00 00 00 00 00 00 00 00 00 00 00 00 00 00 00 00 00 00 00 00 00 00 00 00 00 00 00 b1 00 00 00 00 00 00 00 00 a0 a0 a0 11 00 00 00 00 23 f7 

[2021-12-29 10:48:36 星期三]
收到来自串口：COM2的报文：
01 01 00 00 07 d0 3f a6 01 01 00 00 07 d0 3f a6 
该报文CRC校验出错！

[2021-12-29 10:48:46 星期三]
收到来自串口：COM2的报文：
01 01 00 00 07 d0 3f a6 

[2021-12-29 10:48:46 星期三]
请求报文解析成功！
已向主机发送响应报文：01 01 fa 0f 00 00 01 00 02 00 03 00 00 00 00 00 00 00 00 00 00 00 00 00 00 00 00 00 00 00 00 00 00 00 00 00 00 00 00 00 00 00 10 00 00 00 00 00 00 00 00 00 00 00 00 00 00 00 00 00 00 00 00 00 00 00 00 00 00 01 00 00 00 00 00 00 00 00 00 00 00 00 00 00 00 00 00 00 00 00 00 00 00 00 00 00 00 00 00 00 00 00 00 00 00 00 00 00 00 00 00 00 00 00 00 00 00 00 00 00 00 00 00 00 00 00 00 00 00 00 00 00 00 00 00 00 00 00 00 00 00 00 00 00 00 00 00 00 00 00 00 00 00 00 00 00 00 00 00 00 00 00 00 00 00 00 00 00 00 00 00 00 00 00 00 00 00 00 00 00 00 00 00 00 00 00 00 00 00 00 00 00 00 00 00 00 00 00 00 00 00 00 00 00 00 00 00 00 00 00 00 00 00 00 00 00 00 00 00 00 00 00 00 00 00 00 00 00 00 00 00 00 00 00 00 00 b1 00 00 00 00 00 00 00 00 a0 a0 a0 11 00 00 00 00 23 f7 

[2021-12-29 10:48:54 星期三]
收到来自串口：COM2的报文：
01 01 00 00 07 d0 3f a6 01 01 00 00 07 d0 3f a6 
该报文CRC校验出错！

[2021-12-29 10:48:55 星期三]
收到来自串口：COM2的报文：
01 01 00 00 07 d0 3f a6 01 01 00 00 07 d0 3f a6 01 01 00 00 07 d0 3f a6 01 01 00 00 07 d0 3f a6 01 01 00 00 07 d0 3f a6 01 01 00 00 07 d0 3f a6 01 01 00 00 07 d0 3f a6 01 01 00 00 07 d0 3f a6 
该报文CRC校验出错！

[2021-12-29 10:48:57 星期三]
收到来自串口：COM2的报文：
01 01 00 00 07 d0 3f a6 01 01 00 00 07 d0 3f a6 01 01 00 00 07 d0 3f a6 01 01 00 00 07 d0 3f a6 01 01 00 00 07 d0 3f a6 01 01 00 00 07 d0 3f a6 
该报文CRC校验出错！

[2021-12-29 10:48:57 星期三]
收到来自串口：COM2的报文：
01 01 00 00 07 d0 3f a6 

[2021-12-29 10:48:57 星期三]
请求报文解析成功！
已向主机发送响应报文：01 01 fa 0f 00 00 01 00 02 00 03 00 00 00 00 00 00 00 00 00 00 00 00 00 00 00 00 00 00 00 00 00 00 00 00 00 00 00 00 00 00 00 10 00 00 00 00 00 00 00 00 00 00 00 00 00 00 00 00 00 00 00 00 00 00 00 00 00 00 01 00 00 00 00 00 00 00 00 00 00 00 00 00 00 00 00 00 00 00 00 00 00 00 00 00 00 00 00 00 00 00 00 00 00 00 00 00 00 00 00 00 00 00 00 00 00 00 00 00 00 00 00 00 00 00 00 00 00 00 00 00 00 00 00 00 00 00 00 00 00 00 00 00 00 00 00 00 00 00 00 00 00 00 00 00 00 00 00 00 00 00 00 00 00 00 00 00 00 00 00 00 00 00 00 00 00 00 00 00 00 00 00 00 00 00 00 00 00 00 00 00 00 00 00 00 00 00 00 00 00 00 00 00 00 00 00 00 00 00 00 00 00 00 00 00 00 00 00 00 00 00 00 00 00 00 00 00 00 00 00 00 00 00 00 00 00 b1 00 00 00 00 00 00 00 00 a0 a0 a0 11 00 00 00 00 23 f7 

[2021-12-29 10:49:17 星期三]
关闭应用程序！

[2021-12-29 10:49:19 星期三]
文件路径设置成功!

[2021-12-29 11:02:46 星期三]
关闭应用程序！

[2021-12-29 11:02:49 星期三]
文件路径设置成功!

[2021-12-29 11:03:57 星期三]
关闭应用程序！

[2021-12-29 11:04:00 星期三]
文件路径设置成功!

[2021-12-29 11:05:05 星期三]
关闭应用程序！

[2021-12-29 11:05:08 星期三]
文件路径设置成功!

[2021-12-29 11:05:39 星期三]
关闭应用程序！

[2021-12-29 11:05:41 星期三]
文件路径设置成功!

[2021-12-29 11:06:16 星期三]
关闭应用程序！

[2021-12-29 11:06:18 星期三]
文件路径设置成功!

[2021-12-29 11:08:45 星期三]
关闭应用程序！

[2021-12-29 11:08:48 星期三]
文件路径设置成功!

[2021-12-29 11:10:39 星期三]
关闭应用程序！

[2021-12-29 11:10:42 星期三]
文件路径设置成功!

[2021-12-29 11:12:04 星期三]
关闭应用程序！

[2021-12-29 11:12:07 星期三]
文件路径设置成功!

[2021-12-29 11:12:57 星期三]
关闭应用程序！

[2021-12-29 11:13:00 星期三]
文件路径设置成功!

[2021-12-29 11:13:47 星期三]
关闭应用程序！

[2021-12-29 11:13:49 星期三]
文件路径设置成功!

[2021-12-29 11:15:03 星期三]
关闭应用程序！

[2021-12-29 11:15:06 星期三]
文件路径设置成功!

[2021-12-29 11:15:34 星期三]
关闭应用程序！

[2021-12-29 11:15:36 星期三]
文件路径设置成功!

[2021-12-29 11:16:55 星期三]
关闭应用程序！

[2021-12-29 11:16:57 星期三]
文件路径设置成功!

[2021-12-29 11:17:46 星期三]
关闭应用程序！

[2021-12-29 11:17:49 星期三]
文件路径设置成功!

[2021-12-29 11:18:47 星期三]
关闭应用程序！

[2021-12-29 11:18:50 星期三]
文件路径设置成功!

[2021-12-29 11:19:36 星期三]
关闭应用程序！

[2021-12-29 11:19:38 星期三]
文件路径设置成功!

[2021-12-29 11:20:07 星期三]
关闭应用程序！

[2021-12-29 11:20:10 星期三]
文件路径设置成功!

[2021-12-29 11:20:42 星期三]
关闭应用程序！

[2021-12-29 11:20:51 星期三]
文件路径设置成功!

[2021-12-29 11:23:33 星期三]
成功打开串口! 串口号：COM1

[2021-12-29 11:23:35 星期三]
已关闭串口：COM1

[2021-12-29 11:23:45 星期三]
关闭应用程序！

[2021-12-29 11:23:47 星期三]
文件路径设置成功!

[2021-12-29 11:24:42 星期三]
关闭应用程序！

[2021-12-29 11:24:49 星期三]
文件路径设置成功!

[2021-12-29 11:26:10 星期三]
关闭应用程序！

[2021-12-29 11:26:21 星期三]
文件路径设置成功!

[2021-12-29 11:28:38 星期三]
成功打开串口! 串口号：COM1

[2021-12-29 11:28:40 星期三]
已关闭串口：COM1

[2021-12-29 11:28:45 星期三]
关闭应用程序！

[2021-12-29 11:28:48 星期三]
文件路径设置成功!

[2021-12-29 11:29:36 星期三]
关闭应用程序！

[2021-12-29 11:29:38 星期三]
文件路径设置成功!

[2021-12-29 11:30:37 星期三]
关闭应用程序！

[2021-12-29 11:30:40 星期三]
文件路径设置成功!

[2021-12-29 11:31:15 星期三]
关闭应用程序！

[2021-12-29 11:31:18 星期三]
文件路径设置成功!

[2021-12-29 11:32:34 星期三]
关闭应用程序！

[2021-12-29 11:32:37 星期三]
文件路径设置成功!

[2021-12-29 11:39:32 星期三]
关闭应用程序！

[2021-12-29 11:39:34 星期三]
文件路径设置成功!

[2021-12-30 08:19:14 星期四]
关闭应用程序！

[2021-12-30 08:19:17 星期四]
文件路径设置成功!

[2022-01-02 15:35:08 星期日]
关闭应用程序！

[2022-01-02 15:35:11 星期日]
文件路径设置成功!

[2022-01-02 15:41:00 星期日]
关闭应用程序！

[2022-01-02 15:41:03 星期日]
文件路径设置成功!

[2022-01-02 15:43:02 星期日]
关闭应用程序！

[2022-01-02 15:43:04 星期日]
文件路径设置成功!

[2022-01-02 15:44:29 星期日]
关闭应用程序！

[2022-01-02 15:44:32 星期日]
文件路径设置成功!

[2022-01-02 15:45:42 星期日]
关闭应用程序！

[2022-01-02 15:45:45 星期日]
文件路径设置成功!

[2022-01-02 15:47:20 星期日]
关闭应用程序！

[2022-01-02 15:47:22 星期日]
文件路径设置成功!

[2022-01-02 15:49:20 星期日]
关闭应用程序！

[2022-01-02 15:49:22 星期日]
文件路径设置成功!

[2022-01-02 15:50:02 星期日]
关闭应用程序！

[2022-01-02 15:50:04 星期日]
文件路径设置成功!

[2022-01-02 15:50:50 星期日]
关闭应用程序！

[2022-01-02 15:50:53 星期日]
文件路径设置成功!

[2022-01-02 17:18:51 星期日]
关闭应用程序！

[2022-01-02 17:18:53 星期日]
文件路径设置成功!

[2022-01-02 17:19:52 星期日]
关闭应用程序！

[2022-01-02 17:19:54 星期日]
文件路径设置成功!

[2022-01-02 17:20:45 星期日]
关闭应用程序！

[2022-01-02 17:20:47 星期日]
文件路径设置成功!

[2022-01-02 17:26:06 星期日]
关闭应用程序！

[2022-01-02 17:26:08 星期日]
文件路径设置成功!

[2022-01-02 17:26:50 星期日]
关闭应用程序！

[2022-01-02 17:26:52 星期日]
文件路径设置成功!

[2022-01-02 17:28:35 星期日]
关闭应用程序！

[2022-01-02 17:28:37 星期日]
文件路径设置成功!

[2022-01-02 17:29:27 星期日]
关闭应用程序！

[2022-01-02 17:29:29 星期日]
文件路径设置成功!

[2022-01-02 17:33:00 星期日]
关闭应用程序！

[2022-01-02 17:33:02 星期日]
文件路径设置成功!

[2022-01-02 17:35:31 星期日]
关闭应用程序！

[2022-01-02 17:35:34 星期日]
文件路径设置成功!

[2022-01-02 17:39:00 星期日]
关闭应用程序！

[2022-01-02 17:39:03 星期日]
文件路径设置成功!

[2022-01-02 17:39:32 星期日]
关闭应用程序！

[2022-01-02 17:39:34 星期日]
文件路径设置成功!

[2022-01-02 17:40:32 星期日]
关闭应用程序！

[2022-01-02 17:40:34 星期日]
文件路径设置成功!

[2022-01-02 17:51:48 星期日]
保存至路径：../ModBus_RTU_slaver/record.txt
文件名称：record.txt
文件大小：20241
创建日期：2022-01-02 15:33:22
最后保存日期：2022-01-02 17:40:36


[2022-01-02 17:52:55 星期日]
保存至路径：../ModBus_RTU_slaver/record.txt
文件名称：record.txt
文件大小：20448
创建日期：2022-01-02 15:33:22
最后保存日期：2022-01-02 17:51:48


[2022-01-02 17:53:34 星期日]
无文件路径!，请先选择路径进行保存！

[2022-01-02 17:53:41 星期日]
文件路径设置成功!

[2022-01-02 17:53:58 星期日]
保存至路径：../ModBus_RTU_slaver/record.txt
文件名称：record.txt
文件大小：20655
创建日期：2022-01-02 15:33:22
最后保存日期：2022-01-02 17:52:55


[2022-01-02 18:03:52 星期日]
成功打开串口! 串口号：COM1

[2022-01-02 18:03:55 星期日]
已关闭串口：COM1



[2022-01-02 18:04:18 星期日]
保存至路径：../ModBus_RTU_slaver/record.txt
文件名称：record.txt
文件大小：21135
创建日期：2022-01-02 15:33:22
最后保存日期：2022-01-02 18:04:13


[2022-01-02 18:08:54 星期日]
成功打开串口! 串口号：COM1

[2022-01-02 18:09:11 星期日]
收到来自串口：COM1的报文：
01 01 00 00 00 08 3d cc 

[2022-01-02 18:09:11 星期日]
请求报文解析成功！
已向主机发送响应报文：01 01 01 0f 11 8c 

[2022-01-02 18:09:36 星期日]
收到来自串口：COM1的报文：
01 03 00 00 00 08 44 0c 

[2022-01-02 18:09:36 星期日]
请求报文解析成功！
已向主机发送响应报文：01 03 10 00 0b 00 16 00 21 00 04 00 05 00 00 00 00 00 00 50 f4 

[2022-01-02 18:09:41 星期日]
收到来自串口：COM1的报文：
01 03 00 00 00 01 84 0a 

[2022-01-02 18:09:41 星期日]
请求报文解析成功！
已向主机发送响应报文：01 03 02 00 0b f9 83 

[2022-01-02 18:09:56 星期日]
已关闭串口：COM1

[2022-01-02 18:10:13 星期日]
保存至路径：
文件名称：
文件大小：0
创建日期：1601-01-01 08:00:00
最后保存日期：


[2022-01-02 18:16:36 星期日]
成功打开串口! 串口号：COM2

[2022-01-02 18:16:56 星期日]
收到来自串口：COM2的报文：
01 01 00 00 00 08 3d cc 

[2022-01-02 18:16:56 星期日]
请求报文解析成功！
已向主机发送响应报文：01 01 01 0f 11 8c 

[2022-01-02 18:17:09 星期日]
收到来自串口：COM2的报文：
01 03 00 00 00 08 44 0c 

[2022-01-02 18:17:09 星期日]
请求报文解析成功！
已向主机发送响应报文：01 03 10 00 0b 00 16 00 21 00 04 00 05 00 00 00 00 00 00 50 f4 

[2022-01-02 18:17:16 星期日]
收到来自串口：COM2的报文：
01 01 00 00 07 d0 3f a6 

[2022-01-02 18:17:16 星期日]
请求报文解析成功！
已向主机发送响应报文：01 01 fa 0f 00 00 01 00 02 00 03 00 00 00 00 00 00 00 00 00 00 00 00 00 00 00 00 00 00 00 00 00 00 00 00 00 00 00 00 00 00 00 10 00 00 00 00 00 00 00 00 00 00 00 00 00 00 00 00 00 00 00 00 00 00 00 00 00 00 01 00 00 00 00 00 00 00 00 00 00 00 00 00 00 00 00 00 00 00 00 00 00 00 00 00 00 00 00 00 00 00 00 00 00 00 00 00 00 00 00 00 00 00 00 00 00 00 00 00 00 00 00 00 00 00 00 00 00 00 00 00 00 00 00 00 00 00 00 00 00 00 00 00 00 00 00 00 00 00 00 00 00 00 00 00 00 00 00 00 00 00 00 00 00 00 00 00 00 00 00 00 00 00 00 00 00 00 00 00 00 00 00 00 00 00 00 00 00 00 00 00 00 00 00 00 00 00 00 00 00 00 00 00 00 00 00 00 00 00 00 00 00 00 00 00 00 00 00 00 00 00 00 00 00 00 00 00 00 00 00 00 00 00 00 00 00 b1 00 00 00 00 00 00 00 00 a0 a0 a0 11 00 00 00 00 23 f7 

[2022-01-02 18:17:24 星期日]
收到来自串口：COM2的报文：
01 01 00 06 00 7d 1c 2a 

[2022-01-02 18:17:24 星期日]
请求报文解析成功！
已向主机发送响应报文：01 01 10 00 00 04 00 08 00 0c 00 00 00 00 00 00 00 00 00 61 c5 

[2022-01-02 18:17:27 星期日]
收到来自串口：COM2的报文：
01 03 00 06 00 7d 65 ea 

[2022-01-02 18:17:27 星期日]
请求报文解析成功！
已向主机发送响应报文：01 03 fa 00 00 00 00 00 00 00 00 00 00 00 00 00 00 00 00 00 00 00 00 00 00 00 00 00 00 00 00 00 00 00 00 00 00 00 00 00 00 00 00 00 00 00 00 00 00 00 00 00 00 00 00 00 00 00 00 00 00 00 00 00 00 00 00 00 00 00 00 00 00 00 00 00 00 00 00 00 00 00 00 00 00 00 00 00 00 00 00 00 00 00 00 00 00 00 00 00 00 00 00 00 00 00 00 00 00 00 00 00 00 00 00 00 00 00 00 00 00 00 00 00 00 00 00 00 00 00 00 00 00 00 00 00 00 00 00 00 00 00 00 00 00 00 00 00 00 00 00 00 00 00 00 00 00 00 00 00 00 00 00 00 00 00 00 00 00 00 00 00 00 00 00 00 00 00 00 00 00 00 00 00 00 00 00 00 00 00 00 00 00 00 00 00 00 00 00 00 00 00 00 00 00 00 00 00 00 00 00 00 01 00 0c 00 7d 04 e9 04 e9 04 e9 04 e9 04 e9 04 e9 04 e9 04 e9 04 e9 04 e9 00 00 00 00 00 00 00 00 00 00 00 00 00 00 00 00 44 aa 

[2022-01-02 18:17:41 星期日]
已关闭串口：COM2

[2022-01-02 18:17:45 星期日]
保存至路径：
文件名称：
文件大小：0
创建日期：1601-01-01 08:00:00
最后保存日期：


[2022-01-02 18:18:07 星期日]
成功打开串口! 串口号：COM1

[2022-01-02 18:18:36 星期日]
收到来自串口：COM1的报文：
01 0f 00 01 00 01 01 00 13 57 

[2022-01-02 18:18:36 星期日]
请求报文解析成功！
已向主机发送响应报文：01 0f 00 01 00 01 c5 cb 

[2022-01-02 18:19:05 星期日]
收到来自串口：COM1的报文：
01 10 00 01 00 01 02 00 01 66 41 

[2022-01-02 18:19:05 星期日]
请求报文解析成功！
已向主机发送响应报文：01 10 00 01 00 01 50 09 

[2022-01-02 18:19:43 星期日]
收到来自串口：COM1的报文：
01 10 00 01 00 01 02 00 01 66 41 

[2022-01-02 18:19:43 星期日]
请求报文解析成功！
已向主机发送响应报文：01 10 00 01 00 01 50 09 

[2022-01-02 18:19:54 星期日]
收到来自串口：COM1的报文：
01 10 00 00 00 01 02 00 01 67 90 

[2022-01-02 18:19:54 星期日]
请求报文解析成功！
已向主机发送响应报文：01 10 00 00 00 01 01 c9 

[2022-01-02 18:20:15 星期日]
已关闭串口：COM1

[2022-01-02 18:20:31 星期日]
保存至路径：
文件名称：
文件大小：0
创建日期：1601-01-01 08:00:00
最后保存日期：


[2022-01-02 19:27:34 星期日]
保存至路径：
文件名称：
文件大小：0
创建日期：1601-01-01 08:00:00
最后保存日期：


[2022-01-02 19:30:16 星期日]
保存至路径：
文件名称：
文件大小：0
创建日期：1601-01-01 08:00:00
最后保存日期：


[2022-01-03 23:42:45 星期一]
成功打开串口! 串口号：COM1

[2022-01-03 23:43:02 星期一]
收到来自串口：COM1的报文：
01 01 00 00 00 01 fd ca 

[2022-01-03 23:43:02 星期一]
请求报文解析成功！
已向主机发送响应报文：01 01 01 01 90 48 

[2022-01-03 23:43:12 星期一]
收到来自串口：COM1的报文：
01 01 00 00 07 d0 3f a6 

[2022-01-03 23:43:12 星期一]
请求报文解析成功！
已向主机发送响应报文：01 01 fa 0d 00 00 01 00 02 00 03 00 00 00 00 00 00 00 00 00 00 00 00 00 00 00 00 00 00 00 00 00 00 00 00 00 00 00 00 00 00 00 10 00 00 00 00 00 00 00 00 00 00 00 00 00 00 00 00 00 00 00 00 00 00 00 00 00 00 01 00 00 00 00 00 00 00 00 00 00 00 00 00 00 00 00 00 00 00 00 00 00 00 00 00 00 00 00 00 00 00 00 00 00 00 00 00 00 00 00 00 00 00 00 00 00 00 00 00 00 00 00 00 00 00 00 00 00 00 00 00 00 00 00 00 00 00 00 00 00 00 00 00 00 00 00 00 00 00 00 00 00 00 00 00 00 00 00 00 00 00 00 00 00 00 00 00 00 00 00 00 00 00 00 00 00 00 00 00 00 00 00 00 00 00 00 00 00 00 00 00 00 00 00 00 00 00 00 00 00 00 00 00 00 00 00 00 00 00 00 00 00 00 00 00 00 00 00 00 00 00 00 00 00 00 00 00 00 00 00 00 00 00 00 00 00 b1 00 00 00 00 00 00 00 00 a0 a0 a0 11 00 00 00 00 70 42 

[2022-01-03 23:43:35 星期一]
收到来自串口：COM1的报文：
01 03 00 00 00 01 84 0a 

[2022-01-03 23:43:35 星期一]
请求报文解析成功！
已向主机发送响应报文：01 03 02 00 01 79 84 

[2022-01-03 23:43:42 星期一]
收到来自串口：COM1的报文：
01 03 00 00 00 7d 85 eb 

[2022-01-03 23:43:42 星期一]
请求报文解析成功！
已向主机发送响应报文：01 03 fa 00 01 00 01 00 21 00 04 00 05 00 00 00 00 00 00 00 00 00 00 00 00 00 00 00 00 00 00 00 00 00 00 00 00 00 00 00 00 00 00 00 00 00 00 00 00 00 00 00 00 00 00 00 00 00 00 00 00 00 00 00 00 00 00 00 00 00 00 00 00 00 00 00 00 00 00 00 00 00 00 00 00 00 00 00 00 00 00 00 00 00 00 00 00 00 00 00 00 00 00 00 00 00 00 00 00 00 00 00 00 00 00 00 00 00 00 00 00 00 00 00 00 00 00 00 00 00 00 00 00 00 00 00 00 00 00 00 00 00 00 00 00 00 00 00 00 00 00 00 00 00 00 00 00 00 00 00 00 00 00 00 00 00 00 00 00 00 00 00 00 00 00 00 00 00 00 00 00 00 00 00 00 00 00 00 00 00 00 00 00 00 00 00 00 00 00 00 00 00 00 00 00 00 00 00 00 00 00 00 00 00 00 00 00 00 00 00 00 00 00 00 01 00 0c 00 7d 04 e9 04 e9 04 e9 04 e9 04 e9 04 e9 04 e9 04 e9 04 e9 04 e9 00 00 00 00 d7 c8 

[2022-01-03 23:44:30 星期一]
已关闭串口：COM1

[2022-01-03 23:44:32 星期一]
保存至路径：
文件名称：
文件大小：0
创建日期：1601-01-01 08:00:00
最后保存日期：


[2022-01-03 23:48:09 星期一]
成功打开串口! 串口号：COM1

[2022-01-03 23:48:19 星期一]
已关闭串口：COM1

[2022-01-03 23:48:20 星期一]
保存至路径：
文件名称：
文件大小：0
创建日期：1601-01-01 08:00:00
最后保存日期：


[2022-01-04 08:33:46 星期二]
成功打开串口! 串口号：COM6

[2022-01-04 08:34:05 星期二]
收到来自串口：COM6的报文：
01 01 00 00 07 d0 3f a6 

[2022-01-04 08:34:05 星期二]
请求报文解析成功！
已向主机发送响应报文：01 01 fa 0d 00 00 01 00 02 00 03 00 00 00 00 00 00 00 00 00 00 00 00 00 00 00 00 00 00 00 00 00 00 00 00 00 00 00 00 00 00 00 10 00 00 00 00 00 00 00 00 00 00 00 00 00 00 00 00 00 00 00 00 00 00 00 00 00 00 01 00 00 00 00 00 00 00 00 00 00 00 00 00 00 00 00 00 00 00 00 00 00 00 00 00 00 00 00 00 00 00 00 00 00 00 00 00 00 00 00 00 00 00 00 00 00 00 00 00 00 00 00 00 00 00 00 00 00 00 00 00 00 00 00 00 00 00 00 00 00 00 00 00 00 00 00 00 00 00 00 00 00 00 00 00 00 00 00 00 00 00 00 00 00 00 00 00 00 00 00 00 00 00 00 00 00 00 00 00 00 00 00 00 00 00 00 00 00 00 00 00 00 00 00 00 00 00 00 00 00 00 00 00 00 00 00 00 00 00 00 00 00 00 00 00 00 00 00 00 00 00 00 00 00 00 00 00 00 00 00 00 00 00 00 00 00 b1 00 00 00 00 00 00 00 00 a0 a0 a0 11 00 00 00 00 70 42 

[2022-01-04 08:34:57 星期二]
收到来自串口：COM6的报文：
01 01 f8 30 07 d0 0e c9 

[2022-01-04 08:34:57 星期二]
请求报文解析成功！
已向主机发送响应报文：01 01 fa 00 00 00 00 00 00 00 00 00 00 00 00 00 00 00 00 00 00 00 00 00 00 00 00 00 00 00 00 00 00 00 00 00 00 00 00 00 00 00 00 00 00 00 00 00 00 00 00 00 00 00 00 00 00 00 00 00 00 00 00 00 00 00 00 00 00 00 00 00 00 00 00 00 00 00 00 00 00 00 00 00 00 00 00 00 00 00 00 00 00 00 00 00 00 00 00 00 00 00 00 00 00 00 00 00 00 00 00 00 00 00 00 00 00 00 00 00 00 00 00 00 00 00 00 00 00 00 00 00 00 00 00 00 00 00 00 00 00 00 00 00 00 00 00 00 00 00 00 00 00 00 00 00 00 00 00 00 00 00 00 00 00 00 00 00 00 00 00 00 00 00 00 00 00 00 00 00 00 00 00 00 00 00 00 00 00 00 00 00 00 00 00 00 00 00 00 00 00 00 00 00 00 00 00 00 00 00 00 00 00 00 00 00 00 00 00 00 00 00 00 00 00 00 00 00 00 00 00 00 00 00 00 00 00 00 00 00 00 00 00 00 00 00 00 00 00 00 00 00 00 f5 af 

[2022-01-04 08:35:40 星期二]
收到来自串口：COM6的报文：
01 0f 00 00 07 b0 f6 00 00 00 00 00 00 00 00 00 00 00 00 00 00 00 00 00 00 00 00 00 00 00 00 00 00 00 00 00 00 00 00 00 00 00 00 00 00 00 00 00 00 00 00 00 00 00 00 00 00 00 00 00 00 00 00 00 00 00 00 00 00 00 00 00 00 00 00 00 00 00 00 00 00 00 00 00 00 00 00 00 00 00 00 00 00 00 00 00 00 00 00 00 00 00 00 00 00 00 00 00 00 00 00 00 00 00 00 00 00 00 00 00 00 00 00 00 00 00 00 00 00 00 00 00 00 00 00 00 00 00 00 00 00 00 00 00 00 00 00 00 00 00 00 00 00 00 00 00 00 00 00 00 00 00 00 00 00 00 00 00 00 00 00 00 00 00 00 00 00 00 00 00 00 00 00 00 00 00 00 00 00 00 00 00 00 00 00 00 00 00 00 00 00 00 00 00 00 00 00 00 00 00 00 00 00 00 00 00 00 00 00 00 00 00 00 00 00 00 00 00 00 00 00 00 00 00 00 00 00 00 00 00 00 00 00 00 00 00 00 00 00 00 00 00 00 a6 fe 

[2022-01-04 08:35:40 星期二]
请求报文解析成功！
已向主机发送响应报文：01 0f 00 00 07 b0 56 4f 

[2022-01-04 08:36:15 星期二]
收到来自串口：COM6的报文：
01 01 00 00 00 04 3d c9 

[2022-01-04 08:36:15 星期二]
请求报文解析成功！
已向主机发送响应报文：01 01 01 00 51 88 

[2022-01-04 08:37:07 星期二]
收到来自串口：COM6的报文：
01 10 ff 83 00 7b f6 00 00 00 00 00 00 00 00 00 00 00 00 00 00 00 00 00 00 00 00 00 00 00 00 00 00 00 00 00 00 00 00 00 00 00 00 00 00 00 00 00 00 00 00 00 00 00 00 00 00 00 00 00 00 00 00 00 00 00 00 00 00 00 00 00 00 00 00 00 00 00 00 00 00 00 00 00 00 00 00 00 00 00 00 00 00 00 00 00 00 00 00 00 00 00 00 00 00 00 00 00 00 00 00 00 00 00 00 00 00 00 00 00 00 00 00 00 00 00 00 00 00 00 00 00 00 00 00 00 00 00 00 00 00 00 00 00 00 00 00 00 00 00 00 00 00 00 00 00 00 00 00 00 00 00 00 00 00 00 00 00 00 00 00 00 00 00 00 00 00 00 00 00 00 00 00 00 00 00 00 00 00 00 00 00 00 00 00 00 00 00 00 00 00 00 00 00 00 00 00 00 00 00 00 00 00 00 00 00 00 00 00 00 00 00 00 00 00 00 00 00 00 00 00 00 00 00 00 00 00 00 00 00 00 00 00 00 00 00 00 00 00 00 00 00 00 b7 23 

[2022-01-04 08:37:07 星期二]
请求报文解析成功！
已向主机发送响应报文：01 10 ff 83 00 7b 41 d6 

[2022-01-04 08:37:45 星期二]
收到来自串口：COM6的报文：
01 03 00 00 00 7d 85 eb 

[2022-01-04 08:37:45 星期二]
请求报文解析成功！
已向主机发送响应报文：01 03 fa 00 01 00 01 00 21 00 04 00 05 00 00 00 00 00 00 00 00 00 00 00 00 00 00 00 00 00 00 00 00 00 00 00 00 00 00 00 00 00 00 00 00 00 00 00 00 00 00 00 00 00 00 00 00 00 00 00 00 00 00 00 00 00 00 00 00 00 00 00 00 00 00 00 00 00 00 00 00 00 00 00 00 00 00 00 00 00 00 00 00 00 00 00 00 00 00 00 00 00 00 00 00 00 00 00 00 00 00 00 00 00 00 00 00 00 00 00 00 00 00 00 00 00 00 00 00 00 00 00 00 00 00 00 00 00 00 00 00 00 00 00 00 00 00 00 00 00 00 00 00 00 00 00 00 00 00 00 00 00 00 00 00 00 00 00 00 00 00 00 00 00 00 00 00 00 00 00 00 00 00 00 00 00 00 00 00 00 00 00 00 00 00 00 00 00 00 00 00 00 00 00 00 00 00 00 00 00 00 00 00 00 00 00 00 00 00 00 00 00 00 00 01 00 0c 00 7d 04 e9 04 e9 04 e9 04 e9 04 e9 04 e9 04 e9 04 e9 04 e9 04 e9 00 00 00 00 d7 c8 

[2022-01-04 08:38:19 星期二]
收到来自串口：COM6的报文：
01 03 11 cb 00 7d f1 29 

[2022-01-04 08:38:19 星期二]
请求报文解析成功！
已向主机发送响应报文：01 03 fa 00 00 00 00 00 00 00 00 00 00 00 00 00 00 00 00 00 00 00 00 00 00 00 00 00 00 00 00 00 00 00 00 00 00 00 00 00 00 00 00 00 00 00 00 00 00 00 00 00 00 00 00 00 00 00 00 00 00 00 00 00 00 00 00 00 00 00 00 00 00 00 00 00 00 00 00 00 00 00 00 00 00 00 00 00 00 00 00 00 00 00 00 00 00 00 00 00 00 00 00 00 00 00 00 00 00 00 00 00 00 00 00 00 00 00 00 00 00 00 00 00 00 00 00 00 00 00 00 00 00 00 00 00 00 00 00 00 00 00 00 00 00 00 00 00 00 00 00 00 00 00 00 00 00 00 00 00 00 00 00 00 00 00 00 00 00 00 00 00 00 00 00 00 00 00 00 00 00 00 00 00 00 00 00 00 00 00 00 00 00 00 00 00 00 00 00 00 00 00 00 00 00 00 00 00 00 00 00 00 00 00 00 00 00 00 00 00 00 00 00 00 00 00 00 00 00 00 00 00 00 00 00 00 00 00 00 00 00 00 00 00 00 00 00 00 00 00 00 00 00 08 e8 

[2022-01-04 08:38:32 星期二]
已关闭串口：COM6

[2022-01-04 08:38:36 星期二]
保存至路径：
文件名称：
文件大小：0
创建日期：1601-01-01 08:00:00
最后保存日期：


[2022-01-04 09:32:42 星期二]
保存至路径：
文件名称：
文件大小：0
创建日期：1601-01-01 08:00:00
最后保存日期：


[2022-01-04 09:33:49 星期二]
成功打开串口! 串口号：COM6

[2022-01-04 09:34:07 星期二]
收到来自串口：COM6的报文：
01 0f 00 00 00 0b 02 22 4c fd 91 

[2022-01-04 09:34:07 星期二]
请求报文解析成功！
已向主机发送响应报文：01 0f 00 00 00 0b 14 0c 

[2022-01-04 09:34:16 星期二]
收到来自串口：COM6的报文：
01 01 00 00 00 0b 7d cd 

[2022-01-04 09:34:16 星期二]
请求报文解析成功！
已向主机发送响应报文：01 01 02 22 04 a0 9f 

[2022-01-04 09:34:43 星期二]
收到来自串口：COM6的报文：
01 0f 00 00 00 02 02 ff 00 a6 a8 
该请求报文的字节字段不合法！
已向主机发送异常响应报文：01 8f 03 04 31 

[2022-01-04 09:35:16 星期二]
收到来自串口：COM6的报文：
01 10 00 00 00 02 02 ff 00 e7 e4 
该请求报文的字节字段不合法！
已向主机发送异常响应报文：01 90 03 0c 01 

[2022-01-04 09:35:54 星期二]
收到来自串口：COM6的报文：
01 01 00 00 00 0a bc 0d 00 00 
该请求报文长度不正确！

[2022-01-04 09:36:02 星期二]
收到来自串口：COM6的报文：
01 01 00 00 00 0a bc 0d 

[2022-01-04 09:36:02 星期二]
请求报文解析成功！
已向主机发送响应报文：01 01 02 22 00 a1 5c 

[2022-01-04 09:36:13 星期二]
收到来自串口：COM6的报文：
01 01 ff ff 00 01 fd ee 

[2022-01-04 09:36:13 星期二]
请求报文解析成功！
已向主机发送响应报文：01 01 01 00 51 88 

[2022-01-04 09:36:26 星期二]
收到来自串口：COM6的报文：
01 01 ff ff 00 02 bd ef 
该请求报文的请求无法满足！所请求的线圈数量大于该起始地址可以读取的线圈数量！
已向主机发送异常响应报文：01 81 02 c1 91 
报文长度不合法！
报文长度不合法！

[2022-01-04 09:37:44 星期二]
收到来自串口：COM6的报文：
01 01 00 00 00 00 3c 0a 
该请求报文的数量项不合法！
已向主机发送异常响应报文：01 81 03 00 51 

[2022-01-04 09:37:55 星期二]
收到来自串口：COM6的报文：
01 01 00 00 07 d0 3f a6 

[2022-01-04 09:37:55 星期二]
请求报文解析成功！
已向主机发送响应报文：01 01 fa 22 04 00 00 00 00 00 00 00 00 00 00 00 00 00 00 00 00 00 00 00 00 00 00 00 00 00 00 00 00 00 00 00 00 00 00 00 00 00 00 00 00 00 00 00 00 00 00 00 00 00 00 00 00 00 00 00 00 00 00 00 00 00 00 00 00 00 00 00 00 00 00 00 00 00 00 00 00 00 00 00 00 00 00 00 00 00 00 00 00 00 00 00 00 00 00 00 00 00 00 00 00 00 00 00 00 00 00 00 00 00 00 00 00 00 00 00 00 00 00 00 00 00 00 00 00 00 00 00 00 00 00 00 00 00 00 00 00 00 00 00 00 00 00 00 00 00 00 00 00 00 00 00 00 00 00 00 00 00 00 00 00 00 00 00 00 00 00 00 00 00 00 00 00 00 00 00 00 00 00 00 00 00 00 00 00 00 00 00 00 00 00 00 00 00 00 00 00 00 00 00 00 00 00 00 00 00 00 00 00 00 00 00 00 00 00 00 00 00 00 00 00 00 00 00 00 00 00 00 00 00 00 00 00 00 00 00 00 00 00 00 00 00 00 00 00 00 00 00 00 eb 2a 

[2022-01-04 09:38:05 星期二]
收到来自串口：COM6的报文：
01 12 00 00 07 d0 3f a6 
该报文CRC校验出错！

[2022-01-04 09:38:14 星期二]
收到来自串口：COM6的报文：
01 12 00 00 07 d0 ba 65 
非法功能码！
已向主机发送异常响应报文：01 92 01 8c a0 
报文长度不合法！

[2022-01-04 09:38:30 星期二]
收到来自串口：COM6的报文：
01 0f 00 00 07 b1 f6 01 00 00 00 00 00 00 00 00 00 00 00 00 00 00 00 00 00 00 00 00 00 00 00 00 00 00 00 00 00 00 00 00 00 00 00 00 00 00 00 00 00 00 00 00 00 00 00 00 00 00 00 00 00 00 00 00 00 00 00 00 00 00 00 00 00 00 00 00 00 00 00 00 00 00 00 00 00 00 00 00 00 00 00 00 00 00 00 00 00 00 00 00 00 00 00 00 00 00 00 00 00 00 00 00 00 00 00 00 00 00 00 00 00 00 00 00 00 00 00 00 00 00 00 00 00 00 00 00 00 00 00 00 00 00 00 00 00 00 00 00 00 00 00 00 00 00 00 00 00 00 00 00 00 00 00 00 00 00 00 00 00 00 00 00 00 00 00 00 00 00 00 00 00 00 00 00 00 00 00 00 00 00 00 00 00 00 00 00 00 00 00 00 00 00 00 00 00 00 00 00 00 00 00 00 00 00 00 00 00 00 00 00 00 00 00 00 00 00 00 00 00 00 00 00 00 00 00 00 00 00 00 00 00 00 00 00 00 00 00 00 00 00 00 00 00 eb ba 
该请求报文的数量项不合法！
已向主机发送异常响应报文：01 8f 03 04 31 

[2022-01-04 09:39:00 星期二]
收到来自串口：COM6的报文：
01 0f 00 00 07 b0 f6 01 00 00 00 00 00 00 00 00 00 00 00 00 00 00 00 00 00 00 00 00 00 00 00 00 00 00 00 00 00 00 00 00 00 00 00 00 00 00 00 00 00 00 00 00 00 00 00 00 00 00 00 00 00 00 00 00 00 00 00 00 00 00 00 00 00 00 00 00 00 00 00 00 00 00 00 00 00 00 00 00 00 00 00 00 00 00 00 00 00 00 00 00 00 00 00 00 00 00 00 00 00 00 00 00 00 00 00 00 00 00 00 00 00 00 00 00 00 00 00 00 00 00 00 00 00 00 00 00 00 00 00 00 00 00 00 00 00 00 00 00 00 00 00 00 00 00 00 00 00 00 00 00 00 00 00 00 00 00 00 00 00 00 00 00 00 00 00 00 00 00 00 00 00 00 00 00 00 00 00 00 00 00 00 00 00 00 00 00 00 00 00 00 00 00 00 00 00 00 00 00 00 00 00 00 00 00 00 00 00 00 00 00 00 00 00 00 00 00 00 00 00 00 00 00 00 00 00 00 00 00 00 00 00 00 00 00 00 00 00 00 00 00 00 00 00 76 23 

[2022-01-04 09:39:00 星期二]
请求报文解析成功！
已向主机发送响应报文：01 0f 00 00 07 b0 56 4f 

[2022-01-04 09:39:18 星期二]
收到来自串口：COM6的报文：
01 03 00 00 00 7d 85 eb 

[2022-01-04 09:39:18 星期二]
请求报文解析成功！
已向主机发送响应报文：01 03 fa 00 01 00 01 00 21 00 04 00 05 00 00 00 00 00 00 00 00 00 00 00 00 00 00 00 00 00 00 00 00 00 00 00 00 00 00 00 00 00 00 00 00 00 00 00 00 00 00 00 00 00 00 00 00 00 00 00 00 00 00 00 00 00 00 00 00 00 00 00 00 00 00 00 00 00 00 00 00 00 00 00 00 00 00 00 00 00 00 00 00 00 00 00 00 00 00 00 00 00 00 00 00 00 00 00 00 00 00 00 00 00 00 00 00 00 00 00 00 00 00 00 00 00 00 00 00 00 00 00 00 00 00 00 00 00 00 00 00 00 00 00 00 00 00 00 00 00 00 00 00 00 00 00 00 00 00 00 00 00 00 00 00 00 00 00 00 00 00 00 00 00 00 00 00 00 00 00 00 00 00 00 00 00 00 00 00 00 00 00 00 00 00 00 00 00 00 00 00 00 00 00 00 00 00 00 00 00 00 00 00 00 00 00 00 00 00 00 00 00 00 00 01 00 0c 00 7d 04 e9 04 e9 04 e9 04 e9 04 e9 04 e9 04 e9 04 e9 04 e9 04 e9 00 00 00 00 d7 c8 

[2022-01-04 09:39:33 星期二]
收到来自串口：COM6的报文：
01 10 ff ff 00 01 02 00 01 7c 90 

[2022-01-04 09:39:33 星期二]
请求报文解析成功！
已向主机发送响应报文：01 10 ff ff 00 01 01 ed 

[2022-01-04 09:39:51 星期二]
已关闭串口：COM6

[2022-01-04 09:39:55 星期二]
保存至路径：
文件名称：
文件大小：0
创建日期：1601-01-01 08:00:00
最后保存日期：


[2022-01-04 11:12:20 星期二]
无文件路径!，请先选择路径进行保存！

[2022-01-04 11:12:24 星期二]
文件路径设置成功!

[2022-01-04 11:12:40 星期二]
保存至路径：C:/Users/19943/Desktop/Modbus/Modbus-RTU/Modbus-RTU-Slave/ModBus_RTU_slaver/record.txt
文件名称：record.txt
文件大小：42704
创建日期：2022-01-03 23:12:07
最后保存日期：2022-01-04 09:39:55


[2022-01-04 11:19:39 星期二]
成功打开串口! 串口号：COM1

[2022-01-04 11:20:21 星期二]

[2022-01-04 11:20:21 星期二]
收到来自串口：COM1的报文：
01 01 01 01 
报文长度不合法！

[2022-01-04 11:21:12 星期二]
保存至路径：
文件名称：
文件大小：0
创建日期：1601-01-01 08:00:00
最后保存日期：


[2022-01-04 11:21:49 星期二]
成功打开串口! 串口号：COM1

[2022-01-04 11:21:57 星期二]
收到来自串口COM1的报文：01 01 01 01 
报文长度不合法！

[2022-01-04 11:22:06 星期二]
保存至路径：
文件名称：
文件大小：0
创建日期：1601-01-01 08:00:00
最后保存日期：


[2022-01-04 11:22:46 星期二]
成功打开串口! 串口号：COM1

[2022-01-04 11:23:12 星期二]
收到来自串口 COM1 的报文：01 01 01 01 
报文长度不合法！

[2022-01-04 11:26:06 星期二]
收到来自串口 COM1 的报文：01 01 01 01 01 01 01 01 01 01 01 01 01 01 01 01 01 01 01 01 01 01 01 01 01 01 01 01 01 01 01 01 01 01 01 01 01 01 01 01 01 01 01 01 01 01 01 01 
该报文CRC校验出错！

[2022-01-04 11:27:11 星期二]
已关闭串口：COM1

[2022-01-04 11:40:50 星期二]
保存至路径：../ModBus_RTU_slaver/record.txt
文件名称：record.txt
文件大小：44259
创建日期：2022-01-03 23:12:07
最后保存日期：2022-01-04 11:32:30


[2022-01-04 13:53:33 星期二]
成功打开串口! 串口号：COM1

[2022-01-04 13:53:55 星期二]
已关闭串口：COM1

[2022-01-04 13:53:59 星期二]
成功打开串口! 串口号：COM6

[2022-01-04 13:54:02 星期二]
收到来自串口 COM6 的报文：01 01 00 00 00 01 fd ca 

[2022-01-04 13:54:02 星期二]
请求报文解析成功！
已向主机发送响应报文：01 01 01 01 90 48 

[2022-01-04 13:54:13 星期二]
收到来自串口 COM6 的报文：01 01 00 00 07 d0 3f a6 

[2022-01-04 13:54:13 星期二]
请求报文解析成功！
已向主机发送响应报文：01 01 fa 01 00 00 00 00 00 00 00 00 00 00 00 00 00 00 00 00 00 00 00 00 00 00 00 00 00 00 00 00 00 00 00 00 00 00 00 00 00 00 00 00 00 00 00 00 00 00 00 00 00 00 00 00 00 00 00 00 00 00 00 00 00 00 00 00 00 00 00 00 00 00 00 00 00 00 00 00 00 00 00 00 00 00 00 00 00 00 00 00 00 00 00 00 00 00 00 00 00 00 00 00 00 00 00 00 00 00 00 00 00 00 00 00 00 00 00 00 00 00 00 00 00 00 00 00 00 00 00 00 00 00 00 00 00 00 00 00 00 00 00 00 00 00 00 00 00 00 00 00 00 00 00 00 00 00 00 00 00 00 00 00 00 00 00 00 00 00 00 00 00 00 00 00 00 00 00 00 00 00 00 00 00 00 00 00 00 00 00 00 00 00 00 00 00 00 00 00 00 00 00 00 00 00 00 00 00 00 00 00 00 00 00 00 00 00 00 00 00 00 00 00 00 00 00 00 00 00 00 00 00 00 00 00 00 00 00 00 00 00 00 00 00 00 00 00 00 00 00 00 00 5d 55 

[2022-01-04 13:54:28 星期二]
收到来自串口 COM6 的报文：01 03 00 00 00 7d 85 eb 

[2022-01-04 13:54:28 星期二]
请求报文解析成功！
已向主机发送响应报文：01 03 fa 00 01 00 01 00 21 00 04 00 05 00 00 00 00 00 00 00 00 00 00 00 00 00 00 00 00 00 00 00 00 00 00 00 00 00 00 00 00 00 00 00 00 00 00 00 00 00 00 00 00 00 00 00 00 00 00 00 00 00 00 00 00 00 00 00 00 00 00 00 00 00 00 00 00 00 00 00 00 00 00 00 00 00 00 00 00 00 00 00 00 00 00 00 00 00 00 00 00 00 00 00 00 00 00 00 00 00 00 00 00 00 00 00 00 00 00 00 00 00 00 00 00 00 00 00 00 00 00 00 00 00 00 00 00 00 00 00 00 00 00 00 00 00 00 00 00 00 00 00 00 00 00 00 00 00 00 00 00 00 00 00 00 00 00 00 00 00 00 00 00 00 00 00 00 00 00 00 00 00 00 00 00 00 00 00 00 00 00 00 00 00 00 00 00 00 00 00 00 00 00 00 00 00 00 00 00 00 00 00 00 00 00 00 00 00 00 00 00 00 00 00 01 00 0c 00 7d 04 e9 04 e9 04 e9 04 e9 04 e9 04 e9 04 e9 04 e9 04 e9 04 e9 00 00 00 00 d7 c8 

[2022-01-04 13:54:57 星期二]
收到来自串口 COM6 的报文：01 03 00 19 00 7d 54 2c 

[2022-01-04 13:54:57 星期二]
请求报文解析成功！
已向主机发送响应报文：01 03 fa 00 00 00 00 00 00 00 00 00 00 00 00 00 00 00 00 00 00 00 00 00 00 00 00 00 00 00 00 00 00 00 00 00 00 00 00 00 00 00 00 00 00 00 00 00 00 00 00 00 00 00 00 00 00 00 00 00 00 00 00 00 00 00 00 00 00 00 00 00 00 00 00 00 00 00 00 00 00 00 00 00 00 00 00 00 00 00 00 00 00 00 00 00 00 00 00 00 00 00 00 00 00 00 00 00 00 00 00 00 00 00 00 00 00 00 00 00 00 00 00 00 00 00 00 00 00 00 00 00 00 00 00 00 00 00 00 00 00 00 00 00 00 00 00 00 00 00 00 00 00 00 00 00 00 00 00 00 00 00 00 00 00 00 00 00 00 00 00 00 00 00 01 00 0c 00 7d 04 e9 04 e9 04 e9 04 e9 04 e9 04 e9 04 e9 04 e9 04 e9 04 e9 00 00 00 00 00 00 00 00 00 00 00 00 00 00 00 00 00 00 00 00 00 00 00 00 00 00 00 00 00 00 00 00 00 00 00 00 00 00 00 00 00 00 00 00 00 00 00 00 00 00 00 00 00 00 85 01 

[2022-01-04 13:55:13 星期二]
收到来自串口 COM6 的报文：01 03 00 19 00 64 95 e6 

[2022-01-04 13:55:13 星期二]
请求报文解析成功！
已向主机发送响应报文：01 03 c8 00 00 00 00 00 00 00 00 00 00 00 00 00 00 00 00 00 00 00 00 00 00 00 00 00 00 00 00 00 00 00 00 00 00 00 00 00 00 00 00 00 00 00 00 00 00 00 00 00 00 00 00 00 00 00 00 00 00 00 00 00 00 00 00 00 00 00 00 00 00 00 00 00 00 00 00 00 00 00 00 00 00 00 00 00 00 00 00 00 00 00 00 00 00 00 00 00 00 00 00 00 00 00 00 00 00 00 00 00 00 00 00 00 00 00 00 00 00 00 00 00 00 00 00 00 00 00 00 00 00 00 00 00 00 00 00 00 00 00 00 00 00 00 00 00 00 00 00 00 00 00 00 00 00 00 00 00 00 00 00 00 00 00 00 00 00 00 00 00 00 00 01 00 0c 00 7d 04 e9 04 e9 04 e9 04 e9 04 e9 04 e9 04 e9 04 e9 04 e9 04 e9 00 00 00 00 f1 dd 

[2022-01-04 13:55:41 星期二]
收到来自串口 COM6 的报文：01 0f 00 19 00 0a 02 09 01 20 a1 

[2022-01-04 13:55:41 星期二]
请求报文解析成功！
已向主机发送响应报文：01 0f 00 19 00 0a 04 0b 

[2022-01-04 13:55:44 星期二]
收到来自串口 COM6 的报文：01 0f 00 19 00 0a 02 09 01 20 a1 

[2022-01-04 13:55:44 星期二]
请求报文解析成功！
已向主机发送响应报文：01 0f 00 19 00 0a 04 0b 

[2022-01-04 13:56:10 星期二]
收到来自串口 COM6 的报文：01 10 00 19 00 02 04 00 0a 00 0b 53 0c 

[2022-01-04 13:56:10 星期二]
请求报文解析成功！
已向主机发送响应报文：01 10 00 19 00 02 90 0f 

[2022-01-04 13:56:13 星期二]
收到来自串口 COM6 的报文：01 10 00 19 00 02 04 00 0a 00 0b 53 0c 

[2022-01-04 13:56:13 星期二]
请求报文解析成功！
已向主机发送响应报文：01 10 00 19 00 02 90 0f 

[2022-01-04 13:56:59 星期二]
已关闭串口：COM6

[2022-01-04 13:57:02 星期二]
保存至路径：
文件名称：
文件大小：0
创建日期：1601-01-01 08:00:00
最后保存日期：


[2022-01-04 14:36:30 星期二]
成功打开串口! 串口号：COM1

[2022-01-04 14:36:40 星期二]
收到来自串口 COM1 的报文：01 0f 00 00 00 0b 02 22 4c fd 91 

[2022-01-04 14:36:40 星期二]
请求报文解析成功！
已向主机发送响应报文：01 0f 00 00 00 0b 14 0c 

[2022-01-04 14:37:50 星期二]
收到来自串口 COM1 的报文：01 01 00 00 00 0b 7d cd 

[2022-01-04 14:37:50 星期二]
请求报文解析成功！
已向主机发送响应报文：01 01 02 22 04 a0 9f 

[2022-01-04 14:38:01 星期二]
收到来自串口 COM1 的报文：01 01 00 00 00 0b 7d cd 

[2022-01-04 14:38:01 星期二]
请求报文解析成功！
已向主机发送响应报文：01 01 02 22 04 a0 9f 

[2022-01-04 14:38:22 星期二]
已关闭串口：COM1

[2022-01-04 14:38:25 星期二]
保存至路径：
文件名称：
文件大小：0
创建日期：1601-01-01 08:00:00
最后保存日期：


[2022-01-04 14:46:44 星期二]
串口打开失败！请检查串口！

[2022-01-04 14:46:47 星期二]
成功打开串口! 串口号：COM2

[2022-01-04 14:47:10 星期二]
已关闭串口：COM2

[2022-01-04 14:49:03 星期二]
保存至路径：
文件名称：
文件大小：0
创建日期：1601-01-01 08:00:00
最后保存日期：


[2022-01-04 15:36:28 星期二]
成功打开串口! 串口号：COM1

[2022-01-04 15:36:41 星期二]
收到来自串口 COM1 的报文：01 01 00 01 00 01 ac 0a 

[2022-01-04 15:36:41 星期二]
请求报文解析成功！
已向主机发送响应报文：01 01 01 01 90 48 

[2022-01-04 15:36:44 星期二]
收到来自串口 COM1 的报文：01 01 00 01 00 01 ac 0a 

[2022-01-04 15:36:44 星期二]
请求报文解析成功！
已向主机发送响应报文：01 01 01 01 90 48 

[2022-01-04 15:36:47 星期二]
收到来自串口 COM1 的报文：01 01 00 01 00 01 ac 0a 

[2022-01-04 15:36:47 星期二]
请求报文解析成功！
已向主机发送响应报文：01 01 01 01 90 48 

[2022-01-04 15:36:50 星期二]
收到来自串口 COM1 的报文：01 01 00 01 00 01 ac 0a 

[2022-01-04 15:36:50 星期二]
请求报文解析成功！
已向主机发送响应报文：01 01 01 01 90 48 

[2022-01-04 15:37:07 星期二]
保存至路径：
文件名称：
文件大小：0
创建日期：1601-01-01 08:00:00
最后保存日期：


[2022-01-04 15:42:33 星期二]
成功打开串口! 串口号：COM1

[2022-01-04 15:42:43 星期二]
收到来自串口 COM1 的报文：01 01 00 01 00 01 ac 0a 

[2022-01-04 15:42:43 星期二]
请求报文解析成功！
已向主机发送响应报文：01 01 01 01 90 48 

[2022-01-04 15:42:56 星期二]
收到来自串口 COM1 的报文：01 01 00 01 07 d0 6e 66 

[2022-01-04 15:42:56 星期二]
请求报文解析成功！
已向主机发送响应报文：01 01 fa 11 02 00 09 01 00 00 00 00 00 00 00 00 00 00 00 00 00 00 00 00 00 00 00 00 00 00 00 00 00 00 00 00 00 00 00 00 00 00 00 00 00 00 00 00 00 00 00 00 00 00 00 00 00 00 00 00 00 00 00 00 00 00 00 00 00 00 00 00 00 00 00 00 00 00 00 00 00 00 00 00 00 00 00 00 00 00 00 00 00 00 00 00 00 00 00 00 00 00 00 00 00 00 00 00 00 00 00 00 00 00 00 00 00 00 00 00 00 00 00 00 00 00 00 00 00 00 00 00 00 00 00 00 00 00 00 00 00 00 00 00 00 00 00 00 00 00 00 00 00 00 00 00 00 00 00 00 00 00 00 00 00 00 00 00 00 00 00 00 00 00 00 00 00 00 00 00 00 00 00 00 00 00 00 00 00 00 00 00 00 00 00 00 00 00 00 00 00 00 00 00 00 00 00 00 00 00 00 00 00 00 00 00 00 00 00 00 00 00 00 00 00 00 00 00 00 00 00 00 00 00 00 00 00 00 00 00 00 00 00 00 00 00 00 00 00 00 00 00 00 99 0a 

[2022-01-04 15:43:08 星期二]
已关闭串口：COM1

[2022-01-04 15:43:30 星期二]
成功打开串口! 串口号：COM1

[2022-01-04 15:43:33 星期二]
收到来自串口 COM1 的报文：01 01 00 01 00 01 ac 0a 

[2022-01-04 15:43:33 星期二]
请求报文解析成功！
已向主机发送响应报文：01 01 01 01 90 48 

[2022-01-04 15:43:42 星期二]
收到来自串口 COM1 的报文：01 03 00 01 00 01 d5 ca 

[2022-01-04 15:43:42 星期二]
请求报文解析成功！
已向主机发送响应报文：01 03 02 00 01 79 84 

[2022-01-04 15:43:54 星期二]
收到来自串口 COM1 的报文：01 0f 00 01 00 01 01 01 d2 97 

[2022-01-04 15:43:54 星期二]
请求报文解析成功！
已向主机发送响应报文：01 0f 00 01 00 01 c5 cb 

[2022-01-04 15:44:02 星期二]
收到来自串口 COM1 的报文：01 10 00 01 00 01 02 00 01 66 41 

[2022-01-04 15:44:02 星期二]
请求报文解析成功！
已向主机发送响应报文：01 10 00 01 00 01 50 09 

[2022-01-04 15:44:15 星期二]
收到来自串口 COM1 的报文：01 10 00 01 00 01 02 00 02 26 40 

[2022-01-04 15:44:15 星期二]
请求报文解析成功！
已向主机发送响应报文：01 10 00 01 00 01 50 09 

[2022-01-04 15:44:46 星期二]
保存至路径：
文件名称：
文件大小：0
创建日期：1601-01-01 08:00:00
最后保存日期：


[2022-01-04 16:32:10 星期二]
成功打开串口! 串口号：COM1

[2022-01-04 16:32:29 星期二]
收到来自串口 COM1 的报文：01 0f 00 00 00 0b 02 22 4c fd 91 

[2022-01-04 16:32:29 星期二]
请求报文解析成功！
已向主机发送响应报文：01 0f 00 00 00 0b 14 0c 

[2022-01-04 16:33:05 星期二]
收到来自串口 COM1 的报文：01 01 00 00 00 0b 7d cd 

[2022-01-04 16:33:05 星期二]
请求报文解析成功！
已向主机发送响应报文：01 01 02 22 04 a0 9f 

[2022-01-04 16:33:53 星期二]
保存至路径：
文件名称：
文件大小：0
创建日期：1601-01-01 08:00:00
最后保存日期：


[2022-01-04 16:36:49 星期二]
成功打开串口! 串口号：COM1

[2022-01-04 16:37:02 星期二]
收到来自串口 COM1 的报文：01 01 00 01 07 d0 6e 66 

[2022-01-04 16:37:02 星期二]
请求报文解析成功！
已向主机发送响应报文：01 01 fa 11 02 00 09 01 00 00 00 00 00 00 00 00 00 00 00 00 00 00 00 00 00 00 00 00 00 00 00 00 00 00 00 00 00 00 00 00 00 00 00 00 00 00 00 00 00 00 00 00 00 00 00 00 00 00 00 00 00 00 00 00 00 00 00 00 00 00 00 00 00 00 00 00 00 00 00 00 00 00 00 00 00 00 00 00 00 00 00 00 00 00 00 00 00 00 00 00 00 00 00 00 00 00 00 00 00 00 00 00 00 00 00 00 00 00 00 00 00 00 00 00 00 00 00 00 00 00 00 00 00 00 00 00 00 00 00 00 00 00 00 00 00 00 00 00 00 00 00 00 00 00 00 00 00 00 00 00 00 00 00 00 00 00 00 00 00 00 00 00 00 00 00 00 00 00 00 00 00 00 00 00 00 00 00 00 00 00 00 00 00 00 00 00 00 00 00 00 00 00 00 00 00 00 00 00 00 00 00 00 00 00 00 00 00 00 00 00 00 00 00 00 00 00 00 00 00 00 00 00 00 00 00 00 00 00 00 00 00 00 00 00 00 00 00 00 00 00 00 00 00 99 0a 

[2022-01-04 16:37:14 星期二]
收到来自串口 COM1 的报文：01 01 00 01 00 02 ec 0b 

[2022-01-04 16:37:14 星期二]
请求报文解析成功！
已向主机发送响应报文：01 01 01 01 90 48 

[2022-01-04 16:37:37 星期二]
已关闭串口：COM1

[2022-01-04 16:37:40 星期二]
保存至路径：
文件名称：
文件大小：0
创建日期：1601-01-01 08:00:00
最后保存日期：


[2022-01-05 14:22:23 星期三]
成功打开串口! 串口号：COM1

[2022-01-05 14:22:45 星期三]
收到来自串口 COM1 的报文：01 01 00 01 00 01 ac 0a 

[2022-01-05 14:22:45 星期三]
请求报文解析成功！
已向主机发送响应报文：01 01 01 01 90 48 

[2022-01-05 14:22:55 星期三]
收到来自串口 COM1 的报文：01 01 00 01 00 0a ed cd 

[2022-01-05 14:22:55 星期三]
请求报文解析成功！
已向主机发送响应报文：01 01 02 11 02 34 6d 

[2022-01-05 14:23:01 星期三]
保存至路径：
文件名称：
文件大小：0
创建日期：1601-01-01 08:00:00
最后保存日期：


[2022-01-05 15:40:13 星期三]
成功打开串口! 串口号：COM6

[2022-01-05 15:40:32 星期三]
收到来自串口 COM6 的报文：01 0f 00 00 00 02 02 ff 00 a6 a8 
该请求报文的字节字段不合法！
已向主机发送异常响应报文：01 8f 03 04 31 

[2022-01-05 15:40:41 星期三]
收到来自串口 COM6 的报文：01 0f 00 00 00 02 02 ff 00 a6 a8 
该请求报文的字节字段不合法！
已向主机发送异常响应报文：01 8f 03 04 31 

[2022-01-05 15:40:51 星期三]
已关闭串口：COM6

[2022-01-05 15:40:58 星期三]
保存至路径：
文件名称：
文件大小：0
创建日期：1601-01-01 08:00:00
最后保存日期：


[2022-01-05 17:03:26 星期三]
串口打开失败！请检查串口！

[2022-01-05 17:03:28 星期三]
成功打开串口! 串口号：COM2

[2022-01-05 17:03:54 星期三]
收到来自串口 COM2 的报文：30 31 20 30 46 20 30 30 20 30 30 20 30 30 20 30 32 20 30 32 20 46 46 20 30 30 20 41 36 20 41 38 20 
该报文CRC校验出错！

[2022-01-05 17:04:26 星期三]
收到来自串口 COM2 的报文：30 31 20 30 46 20 30 30 20 30 30 20 30 30 20 30 32 20 30 32 20 46 46 20 30 30 20 41 36 20 41 38 20 
该报文CRC校验出错！

[2022-01-05 17:04:39 星期三]
已关闭串口：COM2

[2022-01-05 17:04:44 星期三]
成功打开串口! 串口号：COM2

[2022-01-05 17:05:03 星期三]
收到来自串口 COM2 的报文：30 31 20 30 46 20 30 30 20 30 30 20 30 30 20 30 32 20 30 32 20 46 46 20 30 30 20 41 36 20 41 38 20 
该报文CRC校验出错！

[2022-01-05 17:05:33 星期三]
保存至路径：
文件名称：
文件大小：0
创建日期：1601-01-01 08:00:00
最后保存日期：


[2022-01-05 17:06:10 星期三]
成功打开串口! 串口号：COM2

[2022-01-05 17:06:12 星期三]
收到来自串口 COM2 的报文：30 31 20 30 46 20 30 30 20 30 30 20 30 30 20 30 32 20 30 32 20 46 46 20 30 30 20 41 36 20 41 38 20 
该报文CRC校验出错！

[2022-01-05 17:06:54 星期三]
收到来自串口 COM2 的报文：01 0f 00 00 00 02 02 ff 00 a6 a8 
该请求报文的字节字段不合法！
已向主机发送异常响应报文：01 8f 03 04 31 

[2022-01-05 17:07:02 星期三]
已关闭串口：COM2

[2022-01-05 17:07:05 星期三]
保存至路径：
文件名称：
文件大小：0
创建日期：1601-01-01 08:00:00
最后保存日期：


[2022-01-05 17:08:07 星期三]
成功打开串口! 串口号：COM2

[2022-01-05 17:08:09 星期三]
收到来自串口 COM2 的报文：01 0f 00 00 00 02 02 ff 00 a6 a8 
该请求报文的字节字段不合法！

[2022-01-05 17:08:20 星期三]
收到来自串口 COM2 的报文：01 0f 00 00 00 02 02 ff 00 a6 a8 
该请求报文的字节字段不合法！

[2022-01-05 17:08:47 星期三]
收到来自串口 COM2 的报文：01 0f 00 00 00 02 02 ff 00 a6 a8 
该请求报文的字节字段不合法！

[2022-01-05 17:09:01 星期三]
已关闭串口：COM2

[2022-01-05 17:09:08 星期三]
保存至路径：
文件名称：
文件大小：0
创建日期：1601-01-01 08:00:00
最后保存日期：


[2022-01-06 14:59:16 星期四]
保存至路径：
文件名称：
文件大小：0
创建日期：1601-01-01 08:00:00
最后保存日期：


[2022-01-06 15:54:23 星期四]
成功打开串口! 串口号：COM1

[2022-01-06 15:54:28 星期四]
收到来自串口 COM1 的报文：01 01 00 01 00 01 ac 0a 

[2022-01-06 15:54:28 星期四]
请求报文解析成功！
已向主机发送响应报文：01 01 01 01 90 48 

[2022-01-06 15:54:45 星期四]
保存至路径：
文件名称：
文件大小：0
创建日期：1601-01-01 08:00:00
最后保存日期：


[2022-01-06 17:28:20 星期四]
成功打开串口! 串口号：COM1

[2022-01-06 17:28:33 星期四]
收到来自串口 COM1 的报文：01 01 00 01 00 64 6c 21 

[2022-01-06 17:28:33 星期四]
请求报文解析成功！
已向主机发送响应报文：01 01 0d 11 02 00 09 01 00 00 00 00 00 00 00 00 aa c4 

[2022-01-06 17:28:46 星期四]
收到来自串口 COM1 的报文：01 03 00 01 00 7d d4 2b 

[2022-01-06 17:28:46 星期四]
请求报文解析成功！
已向主机发送响应报文：01 03 fa 00 02 00 21 00 04 00 05 00 00 00 00 00 00 00 00 00 00 00 00 00 00 00 00 00 00 00 00 00 00 00 00 00 00 00 00 00 00 00 00 00 00 00 00 00 00 00 00 00 0a 00 0b 00 00 00 00 00 00 00 00 00 00 00 00 00 00 00 00 00 00 00 00 00 00 00 00 00 00 00 00 00 00 00 00 00 00 00 00 00 00 00 00 00 00 00 00 00 00 00 00 00 00 00 00 00 00 00 00 00 00 00 00 00 00 00 00 00 00 00 00 00 00 00 00 00 00 00 00 00 00 00 00 00 00 00 00 00 00 00 00 00 00 00 00 00 00 00 00 00 00 00 00 00 00 00 00 00 00 00 00 00 00 00 00 00 00 00 00 00 00 00 00 00 00 00 00 00 00 00 00 00 00 00 00 00 00 00 00 00 00 00 00 00 00 00 00 00 00 00 00 00 00 00 00 00 00 00 00 00 00 00 00 00 00 00 00 00 00 00 01 00 0c 00 7d 04 e9 04 e9 04 e9 04 e9 04 e9 04 e9 04 e9 04 e9 04 e9 04 e9 00 00 00 00 00 00 89 aa 

[2022-01-06 17:29:05 星期四]
保存至路径：
文件名称：
文件大小：0
创建日期：1601-01-01 08:00:00
最后保存日期：


[2022-01-06 17:53:04 星期四]
成功打开串口! 串口号：COM1

[2022-01-06 17:53:24 星期四]
收到来自串口 COM1 的报文：01 01 00 01 00 01 ac 0a 

[2022-01-06 17:53:24 星期四]
请求报文解析成功！
已向主机发送响应报文：01 01 01 01 90 48 

[2022-01-06 17:53:31 星期四]
收到来自串口 COM1 的报文：01 0f 00 01 00 01 01 01 d2 97 

[2022-01-06 17:53:31 星期四]
请求报文解析成功！
已向主机发送响应报文：01 0f 00 01 00 01 c5 cb 

[2022-01-06 17:54:03 星期四]
收到来自串口 COM1 的报文：01 0f 00 00 00 01 01 01 ef 57 

[2022-01-06 17:54:03 星期四]
请求报文解析成功！
已向主机发送响应报文：01 0f 00 00 00 01 94 0b 

[2022-01-06 17:54:37 星期四]
已关闭串口：COM1

[2022-01-06 17:54:42 星期四]
保存至路径：
文件名称：
文件大小：0
创建日期：1601-01-01 08:00:00
最后保存日期：


[2022-01-07 14:14:25 星期五]
串口打开失败！请检查串口！

[2022-01-07 14:14:29 星期五]
成功打开串口! 串口号：COM2

[2022-01-07 14:14:31 星期五]
收到来自串口 COM2 的报文：01 0f 00 00 00 02 02 ff 00 a6 a8 
该请求报文的字节字段不合法！

[2022-01-07 14:15:09 星期五]
保存至路径：
文件名称：
文件大小：0
创建日期：1601-01-01 08:00:00
最后保存日期：


[2022-01-07 14:15:53 星期五]
成功打开串口! 串口号：COM1

[2022-01-07 14:15:59 星期五]
收到来自串口 COM1 的报文：01 01 00 01 00 01 ac 0a 

[2022-01-07 14:15:59 星期五]
请求报文解析成功！
已向主机发送响应报文：01 01 01 01 90 48 

[2022-01-07 14:16:05 星期五]
收到来自串口 COM1 的报文：01 0f 00 01 00 01 01 01 d2 97 

[2022-01-07 14:16:05 星期五]
请求报文解析成功！
已向主机发送响应报文：01 0f 00 01 00 01 c5 cb 

[2022-01-07 14:16:17 星期五]
收到来自串口 COM1 的报文：01 0f 00 01 00 01 01 01 d2 97 

[2022-01-07 14:16:17 星期五]
请求报文解析成功！
已向主机发送响应报文：01 0f 00 01 00 01 c5 cb 

[2022-01-07 14:16:27 星期五]
保存至路径：
文件名称：
文件大小：0
创建日期：1601-01-01 08:00:00
最后保存日期：


[2022-01-07 14:20:30 星期五]
成功打开串口! 串口号：COM1

[2022-01-07 14:20:42 星期五]
收到来自串口 COM1 的报文：01 01 00 01 00 01 ac 0a 

[2022-01-07 14:20:42 星期五]
请求报文解析成功！
已向主机发送响应报文：01 01 01 01 90 48 

[2022-01-07 14:21:07 星期五]
保存至路径：
文件名称：
文件大小：0
创建日期：1601-01-01 08:00:00
最后保存日期：


[2022-01-07 14:25:25 星期五]
成功打开串口! 串口号：COM1

[2022-01-07 14:25:37 星期五]
收到来自串口 COM1 的报文：01 01 00 00 00 03 7c 0b 

[2022-01-07 14:25:37 星期五]
请求报文解析成功！
已向主机发送响应报文：01 01 01 03 11 89 

[2022-01-07 14:25:47 星期五]
收到来自串口 COM1 的报文：01 03 00 00 00 03 05 cb 

[2022-01-07 14:25:47 星期五]
请求报文解析成功！
已向主机发送响应报文：01 03 06 00 01 00 02 00 21 7d 6d 

[2022-01-07 14:25:55 星期五]
保存至路径：
文件名称：
文件大小：0
创建日期：1601-01-01 08:00:00
最后保存日期：


[2022-01-07 15:54:31 星期五]
成功打开串口! 串口号：COM6

[2022-01-07 15:54:36 星期五]
收到来自串口 COM6 的报文：01 0f 00 00 00 02 02 ff 00 a6 a8 
该请求报文的字节字段不合法！

[2022-01-07 15:54:50 星期五]
已关闭串口：COM6

[2022-01-07 15:54:52 星期五]
保存至路径：
文件名称：
文件大小：0
创建日期：1601-01-01 08:00:00
最后保存日期：


[2022-01-10 10:07:26 星期一]
保存至路径：
文件名称：
文件大小：0
创建日期：1601-01-01 08:00:00
最后保存日期：


[2022-01-10 10:08:15 星期一]
保存至路径：
文件名称：
文件大小：0
创建日期：1601-01-01 08:00:00
最后保存日期：


[2022-01-10 10:11:34 星期一]
保存至路径：
文件名称：
文件大小：0
创建日期：1601-01-01 08:00:00
最后保存日期：


